! COPPER MOUNTAIN TECHNOLOGIES, TR5048, 14027131, 0.7.17/2.0
! Date: 8.11.2025 10:18:02
! Data: Format [Calibration Info]
! Freq          	S11: Re/Im F1                  
# HZ S RI R 50
1.20000000E+08	-1.74402183E-01	 7.23973255E-01
1.20533334E+08	-1.66488513E-01	 7.22316095E-01
1.21066666E+08	-1.58713072E-01	 7.20331715E-01
1.21600000E+08	-1.50757564E-01	 7.18447700E-01
1.22133334E+08	-1.43128353E-01	 7.16354159E-01
1.22666667E+08	-1.35478995E-01	 7.14472773E-01
1.23200000E+08	-1.27737113E-01	 7.12053393E-01
1.23733333E+08	-1.19811500E-01	 7.09304091E-01
1.24266667E+08	-1.11628505E-01	 7.06744956E-01
1.24800000E+08	-1.03904599E-01	 7.03988475E-01
1.25333333E+08	-9.60347173E-02	 7.01054324E-01
1.25866667E+08	-8.79702396E-02	 6.98154354E-01
1.26400000E+08	-7.99817130E-02	 6.95049341E-01
1.26933333E+08	-7.20105171E-02	 6.91703441E-01
1.27466667E+08	-6.40445836E-02	 6.88285046E-01
1.28000000E+08	-5.61518925E-02	 6.84906451E-01
1.28533333E+08	-4.85171439E-02	 6.81148613E-01
1.29066667E+08	-4.06389482E-02	 6.77120861E-01
1.29600000E+08	-3.30343328E-02	 6.72943665E-01
1.30133333E+08	-2.53218703E-02	 6.68705065E-01
1.30666667E+08	-1.76145659E-02	 6.64427311E-01
1.31200000E+08	-9.78572809E-03	 6.59761568E-01
1.31733333E+08	-2.08545354E-03	 6.55245470E-01
1.32266667E+08	 5.61953893E-03	 6.50145321E-01
1.32800000E+08	 1.31423504E-02	 6.44990765E-01
1.33333333E+08	 2.07975221E-02	 6.39589297E-01
1.33866667E+08	 2.84268340E-02	 6.34182604E-01
1.34400000E+08	 3.58632702E-02	 6.28492146E-01
1.34933333E+08	 4.34561291E-02	 6.22941680E-01
1.35466667E+08	 5.08013699E-02	 6.16938453E-01
1.36000000E+08	 5.80781548E-02	 6.10766574E-01
1.36533333E+08	 6.51123827E-02	 6.04435281E-01
1.37066666E+08	 7.22419618E-02	 5.97984549E-01
1.37600000E+08	 7.92130461E-02	 5.91318633E-01
1.38133334E+08	 8.61510684E-02	 5.84442253E-01
1.38666666E+08	 9.29970629E-02	 5.77460931E-01
1.39200000E+08	 9.96159568E-02	 5.70370390E-01
1.39733334E+08	 1.06313138E-01	 5.63094181E-01
1.40266666E+08	 1.12582393E-01	 5.55406936E-01
1.40800000E+08	 1.18839858E-01	 5.47749704E-01
1.41333334E+08	 1.25125840E-01	 5.39775745E-01
1.41866666E+08	 1.31334797E-01	 5.31622589E-01
1.42400000E+08	 1.37306850E-01	 5.23261945E-01
1.42933334E+08	 1.43186094E-01	 5.14807783E-01
1.43466667E+08	 1.48653143E-01	 5.06273048E-01
1.44000000E+08	 1.54040744E-01	 4.97530442E-01
1.44533333E+08	 1.59325003E-01	 4.88400457E-01
1.45066667E+08	 1.64408751E-01	 4.79393898E-01
1.45600000E+08	 1.69370225E-01	 4.70174559E-01
1.46133333E+08	 1.74093608E-01	 4.60675614E-01
1.46666667E+08	 1.78642173E-01	 4.51070939E-01
1.47200000E+08	 1.82944290E-01	 4.41282903E-01
1.47733333E+08	 1.86997384E-01	 4.31445323E-01
1.48266667E+08	 1.90878554E-01	 4.21405900E-01
1.48800000E+08	 1.94574400E-01	 4.11132752E-01
1.49333333E+08	 1.97844571E-01	 4.00861893E-01
1.49866667E+08	 2.01033499E-01	 3.90485692E-01
1.50400000E+08	 2.03976451E-01	 3.79912851E-01
1.50933333E+08	 2.06571602E-01	 3.69188470E-01
1.51466667E+08	 2.09068000E-01	 3.58391949E-01
1.52000000E+08	 2.11267962E-01	 3.47420792E-01
1.52533333E+08	 2.13063224E-01	 3.36464340E-01
1.53066667E+08	 2.14672354E-01	 3.25385114E-01
1.53600000E+08	 2.15902549E-01	 3.14362521E-01
1.54133333E+08	 2.17045041E-01	 3.03022795E-01
1.54666667E+08	 2.17619634E-01	 2.91655956E-01
1.55200000E+08	 2.17955256E-01	 2.80431241E-01
1.55733333E+08	 2.18149512E-01	 2.69067848E-01
1.56266667E+08	 2.17763179E-01	 2.57645398E-01
1.56800000E+08	 2.17253400E-01	 2.46223920E-01
1.57333333E+08	 2.16391047E-01	 2.34684473E-01
1.57866666E+08	 2.15131837E-01	 2.23317344E-01
1.58400000E+08	 2.13617166E-01	 2.11829832E-01
1.58933334E+08	 2.11906655E-01	 2.00397900E-01
1.59466666E+08	 2.09743361E-01	 1.89026582E-01
1.60000000E+08	 2.07223096E-01	 1.77685983E-01
1.60533334E+08	 2.04404068E-01	 1.66303951E-01
1.61066666E+08	 2.01337871E-01	 1.55187892E-01
1.61600000E+08	 1.97630227E-01	 1.44127829E-01
1.62133334E+08	 1.93845458E-01	 1.33014072E-01
1.62666667E+08	 1.89628123E-01	 1.21947317E-01
1.63200000E+08	 1.85198360E-01	 1.11155271E-01
1.63733333E+08	 1.80393809E-01	 1.00364125E-01
1.64266667E+08	 1.75207835E-01	 8.98419377E-02
1.64800000E+08	 1.69737829E-01	 7.94516285E-02
1.65333333E+08	 1.63943450E-01	 6.91862530E-02
1.65866667E+08	 1.57744054E-01	 5.90802287E-02
1.66400000E+08	 1.51369386E-01	 4.92149060E-02
1.66933333E+08	 1.44687430E-01	 3.95020453E-02
1.67466667E+08	 1.37575569E-01	 2.99972269E-02
1.68000000E+08	 1.30206027E-01	 2.06603292E-02
1.68533333E+08	 1.22626907E-01	 1.16221240E-02
1.69066667E+08	 1.14677346E-01	 2.84424291E-03
1.69600000E+08	 1.06476109E-01	-5.63653742E-03
1.70133333E+08	 9.80850170E-02	-1.39429602E-02
1.70666667E+08	 8.94213943E-02	-2.19353437E-02
1.71200000E+08	 8.04036114E-02	-2.94612756E-02
1.71733333E+08	 7.13326710E-02	-3.68739288E-02
1.72266667E+08	 6.18291443E-02	-4.39829909E-02
1.72800000E+08	 5.22976369E-02	-5.07333948E-02
1.73333333E+08	 4.24663429E-02	-5.72888701E-02
1.73866667E+08	 3.24856957E-02	-6.33032373E-02
1.74400000E+08	 2.22401509E-02	-6.92137719E-02
1.74933333E+08	 1.18853483E-02	-7.46204747E-02
1.75466667E+08	 1.29844940E-03	-7.97458088E-02
1.76000000E+08	-9.33031644E-03	-8.44041081E-02
1.76533333E+08	-2.00954364E-02	-8.88828925E-02
1.77066666E+08	-3.10942091E-02	-9.27498745E-02
1.77600000E+08	-4.22301227E-02	-9.63126024E-02
1.78133334E+08	-5.32816187E-02	-9.95801494E-02
1.78666666E+08	-6.44810248E-02	-1.02336590E-01
1.79200000E+08	-7.57751249E-02	-1.04771889E-01
1.79733334E+08	-8.71052483E-02	-1.06925391E-01
1.80266666E+08	-9.85715234E-02	-1.08604729E-01
1.80800000E+08	-1.09856519E-01	-1.09992405E-01
1.81333334E+08	-1.21320871E-01	-1.10853881E-01
1.81866666E+08	-1.32804217E-01	-1.11357313E-01
1.82400000E+08	-1.44126579E-01	-1.11585067E-01
1.82933334E+08	-1.55547718E-01	-1.11317290E-01
1.83466667E+08	-1.66879990E-01	-1.10736415E-01
1.84000000E+08	-1.78159240E-01	-1.09689466E-01
1.84533333E+08	-1.89377987E-01	-1.08373690E-01
1.85066667E+08	-2.00559644E-01	-1.06664102E-01
1.85600000E+08	-2.11682208E-01	-1.04559302E-01
1.86133333E+08	-2.22650337E-01	-1.02155811E-01
1.86666667E+08	-2.33516554E-01	-9.93356747E-02
1.87200000E+08	-2.44342022E-01	-9.61503672E-02
1.87733333E+08	-2.54928606E-01	-9.25004640E-02
1.88266667E+08	-2.65386742E-01	-8.85258195E-02
1.88800000E+08	-2.75669505E-01	-8.41633462E-02
1.89333333E+08	-2.85905417E-01	-7.95705815E-02
1.89866667E+08	-2.95903065E-01	-7.45825661E-02
1.90400000E+08	-3.05702627E-01	-6.93874446E-02
1.90933333E+08	-3.15336540E-01	-6.37997300E-02
1.91466667E+08	-3.24777574E-01	-5.78283294E-02
1.92000000E+08	-3.33969184E-01	-5.14969199E-02
1.92533333E+08	-3.43030051E-01	-4.50163515E-02
1.93066667E+08	-3.51774835E-01	-3.82442669E-02
1.93600000E+08	-3.60325742E-01	-3.11106904E-02
1.94133333E+08	-3.68654321E-01	-2.36224080E-02
1.94666667E+08	-3.76827382E-01	-1.59931097E-02
1.95200000E+08	-3.84712964E-01	-7.96045915E-03
1.95733333E+08	-3.92171726E-01	 3.26718453E-04
1.96266667E+08	-3.99383666E-01	 8.76426697E-03
1.96800000E+08	-4.06419852E-01	 1.75146687E-02
1.97333333E+08	-4.13178083E-01	 2.67005083E-02
1.97866666E+08	-4.19604322E-01	 3.59099729E-02
1.98400000E+08	-4.25849486E-01	 4.54393229E-02
1.98933334E+08	-4.31694070E-01	 5.51506751E-02
1.99466666E+08	-4.37054932E-01	 6.52026135E-02
2.00000000E+08	-4.42300779E-01	 7.53403087E-02
2.00533334E+08	-4.47153371E-01	 8.56306376E-02
2.01066666E+08	-4.51849884E-01	 9.62411016E-02
2.01600000E+08	-4.55949690E-01	 1.06984763E-01
2.02133334E+08	-4.59850409E-01	 1.17857874E-01
2.02666667E+08	-4.63433751E-01	 1.28816501E-01
2.03200000E+08	-4.66690535E-01	 1.40327130E-01
2.03733333E+08	-4.69481906E-01	 1.51948544E-01
2.04266667E+08	-4.72006914E-01	 1.63493483E-01
2.04800000E+08	-4.74239123E-01	 1.75278310E-01
2.05333333E+08	-4.75937699E-01	 1.87010766E-01
2.05866667E+08	-4.77363776E-01	 1.99132746E-01
2.06400000E+08	-4.78142025E-01	 2.11364653E-01
2.06933333E+08	-4.78768924E-01	 2.23548065E-01
2.07466667E+08	-4.79143499E-01	 2.36012749E-01
2.08000000E+08	-4.79069978E-01	 2.48147192E-01
2.08533333E+08	-4.78531094E-01	 2.60943122E-01
2.09066667E+08	-4.77480371E-01	 2.73560552E-01
2.09600000E+08	-4.76310942E-01	 2.86421569E-01
2.10133333E+08	-4.74367880E-01	 2.99199581E-01
2.10666667E+08	-4.72058049E-01	 3.12015397E-01
2.11200000E+08	-4.69316903E-01	 3.25465263E-01
2.11733333E+08	-4.66305279E-01	 3.38257051E-01
2.12266667E+08	-4.63008138E-01	 3.51292885E-01
2.12800000E+08	-4.58688710E-01	 3.64374405E-01
2.13333333E+08	-4.54396070E-01	 3.77355901E-01
2.13866667E+08	-4.49140469E-01	 3.90431428E-01
2.14400000E+08	-4.43692646E-01	 4.03533378E-01
2.14933333E+08	-4.37813860E-01	 4.16757759E-01
2.15466667E+08	-4.31476302E-01	 4.30069475E-01
2.16000000E+08	-4.24498328E-01	 4.43072227E-01
2.16533333E+08	-4.17399224E-01	 4.56109999E-01
2.17066666E+08	-4.09169671E-01	 4.69298614E-01
2.17600000E+08	-4.00741567E-01	 4.82262315E-01
2.18133334E+08	-3.91698550E-01	 4.94994050E-01
2.18666666E+08	-3.82108902E-01	 5.08047417E-01
2.19200000E+08	-3.72100073E-01	 5.20597764E-01
2.19733334E+08	-3.61330100E-01	 5.33261478E-01
2.20266666E+08	-3.50237992E-01	 5.45614874E-01
2.20800000E+08	-3.38190205E-01	 5.57740659E-01
2.21333334E+08	-3.25807638E-01	 5.69821209E-01
2.21866666E+08	-3.12602681E-01	 5.81865571E-01
2.22400000E+08	-2.98730207E-01	 5.93518820E-01
2.22933334E+08	-2.84490351E-01	 6.05009566E-01
2.23466667E+08	-2.69292625E-01	 6.16186863E-01
2.24000000E+08	-2.53670956E-01	 6.27096619E-01
2.24533333E+08	-2.37204129E-01	 6.37669500E-01
2.25066667E+08	-2.20113627E-01	 6.47872124E-01
2.25600000E+08	-2.02483262E-01	 6.57849068E-01
2.26133333E+08	-1.83988007E-01	 6.67444205E-01
2.26666667E+08	-1.64674672E-01	 6.76462922E-01
2.27200000E+08	-1.44649065E-01	 6.85078268E-01
2.27733333E+08	-1.24080617E-01	 6.93014370E-01
2.28266667E+08	-1.02738954E-01	 7.00635718E-01
2.28800000E+08	-8.02424946E-02	 7.07522920E-01
2.29333333E+08	-5.70194969E-02	 7.13849400E-01
2.29866667E+08	-3.33099801E-02	 7.19474150E-01
2.30400000E+08	-8.66837491E-03	 7.24170491E-01
2.30933333E+08	 1.65390216E-02	 7.27909891E-01
2.31466667E+08	 4.28471397E-02	 7.30746687E-01
2.32000000E+08	 6.97237414E-02	 7.32989711E-01
2.32533333E+08	 9.71435577E-02	 7.34139848E-01
2.33066667E+08	 1.25738151E-01	 7.34120289E-01
2.33600000E+08	 1.54735531E-01	 7.33158213E-01
2.34133333E+08	 1.84702591E-01	 7.30731518E-01
2.34666667E+08	 2.14968104E-01	 7.26929177E-01
2.35200000E+08	 2.46259641E-01	 7.21959308E-01
2.35733333E+08	 2.78254152E-01	 7.15070296E-01
2.36266667E+08	 3.10120635E-01	 7.06798445E-01
2.36800000E+08	 3.42760870E-01	 6.96876778E-01
2.37333333E+08	 3.75965491E-01	 6.84907129E-01
2.37866666E+08	 4.09886236E-01	 6.71382396E-01
2.38400000E+08	 4.43478304E-01	 6.55376411E-01
2.38933334E+08	 4.77133004E-01	 6.37616519E-01
2.39466666E+08	 5.10956606E-01	 6.17688177E-01
2.40000000E+08	 5.44511918E-01	 5.95729660E-01
2.40533334E+08	 5.77688012E-01	 5.71245305E-01
2.41066666E+08	 6.10192812E-01	 5.44532294E-01
2.41600000E+08	 6.42168048E-01	 5.15093492E-01
2.42133334E+08	 6.73329207E-01	 4.83211264E-01
2.42666667E+08	 7.03396271E-01	 4.49288194E-01
2.43200000E+08	 7.31763406E-01	 4.12571564E-01
2.43733333E+08	 7.58907591E-01	 3.73055065E-01
2.44266667E+08	 7.84146587E-01	 3.32075614E-01
2.44800000E+08	 8.07673466E-01	 2.87900701E-01
2.45333333E+08	 8.28910686E-01	 2.41970823E-01
2.45866667E+08	 8.47353568E-01	 1.93759247E-01
2.46400000E+08	 8.62925737E-01	 1.43790992E-01
2.46933333E+08	 8.76194734E-01	 9.23710885E-02
2.47466667E+08	 8.85566668E-01	 3.88378655E-02
2.48000000E+08	 8.91820979E-01	-1.49441437E-02
2.48533333E+08	 8.94460907E-01	-7.06004915E-02
2.49066667E+08	 8.93510915E-01	-1.26773354E-01
2.49600000E+08	 8.89139724E-01	-1.82994254E-01
2.50133333E+08	 8.80815529E-01	-2.39452731E-01
2.50666667E+08	 8.68929087E-01	-2.95291245E-01
2.51200000E+08	 8.52800823E-01	-3.50676258E-01
2.51733333E+08	 8.33489808E-01	-4.04807756E-01
2.52266667E+08	 8.10392317E-01	-4.57769996E-01
2.52800000E+08	 7.83960035E-01	-5.08940705E-01
2.53333333E+08	 7.54330670E-01	-5.58261760E-01
2.53866667E+08	 7.21569733E-01	-6.05346460E-01
2.54400000E+08	 6.86175202E-01	-6.49697036E-01
2.54933333E+08	 6.48102462E-01	-6.91569538E-01
2.55466667E+08	 6.07835200E-01	-7.30297048E-01
2.56000000E+08	 5.65801797E-01	-7.66304611E-01
2.56533333E+08	 5.16860718E-01	-8.02767424E-01
2.57066666E+08	 4.71480208E-01	-8.32430743E-01
2.57600000E+08	 4.25017488E-01	-8.58614968E-01
2.58133334E+08	 3.77930314E-01	-8.81950451E-01
2.58666666E+08	 3.30137907E-01	-9.01713934E-01
2.59200000E+08	 2.82816811E-01	-9.18814377E-01
2.59733334E+08	 2.34936776E-01	-9.32721614E-01
2.60266666E+08	 1.87651349E-01	-9.44060960E-01
2.60800000E+08	 1.40815308E-01	-9.52253211E-01
2.61333334E+08	 9.44971354E-02	-9.58438527E-01
2.61866666E+08	 4.88600839E-02	-9.61837136E-01
2.62400000E+08	 4.26356068E-03	-9.62595929E-01
2.62933334E+08	-3.93411374E-02	-9.61808433E-01
2.63466667E+08	-8.21920393E-02	-9.58913854E-01
2.64000000E+08	-1.23919273E-01	-9.54462021E-01
2.64533333E+08	-1.64076903E-01	-9.47741601E-01
2.65066667E+08	-2.03034075E-01	-9.39634371E-01
2.65600000E+08	-2.40561775E-01	-9.29929186E-01
2.66133333E+08	-2.77000282E-01	-9.19353150E-01
2.66666667E+08	-3.11974841E-01	-9.06905781E-01
2.67200000E+08	-3.45730498E-01	-8.94004269E-01
2.67733333E+08	-3.78374513E-01	-8.80060187E-01
2.68266667E+08	-4.09259462E-01	-8.64986632E-01
2.68800000E+08	-4.39407031E-01	-8.49696140E-01
2.69333333E+08	-4.67671950E-01	-8.33526775E-01
2.69866667E+08	-4.94545259E-01	-8.16317702E-01
2.70400000E+08	-5.20489832E-01	-7.99263761E-01
2.70933333E+08	-5.45097223E-01	-7.81341692E-01
2.71466667E+08	-5.68823530E-01	-7.62919338E-01
2.72000000E+08	-5.91394213E-01	-7.44950567E-01
2.72533333E+08	-6.13148496E-01	-7.26401438E-01
2.73066667E+08	-6.33530634E-01	-7.07266445E-01
2.73600000E+08	-6.52666426E-01	-6.88837557E-01
2.74133333E+08	-6.71133394E-01	-6.69809876E-01
2.74666667E+08	-6.88680704E-01	-6.50580127E-01
2.75200000E+08	-7.05201761E-01	-6.31054637E-01
2.75733333E+08	-7.21041839E-01	-6.11577749E-01
2.76266667E+08	-7.36017061E-01	-5.92638233E-01
2.76800000E+08	-7.50141372E-01	-5.73563757E-01
2.77333333E+08	-7.63452431E-01	-5.54740468E-01
2.77866666E+08	-7.76173063E-01	-5.35533014E-01
2.78400000E+08	-7.87999739E-01	-5.16514235E-01
2.78933334E+08	-7.99307691E-01	-4.97580004E-01
2.79466666E+08	-8.09766103E-01	-4.79017307E-01
2.80000000E+08	-8.19768674E-01	-4.60434024E-01
