! COPPER MOUNTAIN TECHNOLOGIES, TR5048, 14027131, 0.7.17/2.0
! Date: 8.11.2025 10:19:58
! Data: Format [Calibration Info]
! Freq          	S11: Re/Im F1                  
# HZ S RI R 50
1.20000000E+08	-4.28483759E-01	 7.57296668E-01
1.20533334E+08	-4.23107096E-01	 7.58576556E-01
1.21066666E+08	-4.17247699E-01	 7.60201320E-01
1.21600000E+08	-4.11326501E-01	 7.61293032E-01
1.22133334E+08	-4.06272103E-01	 7.62916827E-01
1.22666667E+08	-4.00398214E-01	 7.64212145E-01
1.23200000E+08	-3.94334715E-01	 7.65506163E-01
1.23733333E+08	-3.88322661E-01	 7.66586430E-01
1.24266667E+08	-3.82406230E-01	 7.67862767E-01
1.24800000E+08	-3.76528795E-01	 7.68922240E-01
1.25333333E+08	-3.70485643E-01	 7.69773211E-01
1.25866667E+08	-3.64492645E-01	 7.70652744E-01
1.26400000E+08	-3.58108875E-01	 7.71662665E-01
1.26933333E+08	-3.51845237E-01	 7.72871548E-01
1.27466667E+08	-3.45860479E-01	 7.73697320E-01
1.28000000E+08	-3.39590835E-01	 7.74416787E-01
1.28533333E+08	-3.33322000E-01	 7.75216400E-01
1.29066667E+08	-3.27224814E-01	 7.75993585E-01
1.29600000E+08	-3.21089683E-01	 7.76281514E-01
1.30133333E+08	-3.14691534E-01	 7.76508956E-01
1.30666667E+08	-3.08515949E-01	 7.77107592E-01
1.31200000E+08	-3.02000202E-01	 7.77467736E-01
1.31733333E+08	-2.95645008E-01	 7.77747889E-01
1.32266667E+08	-2.88800107E-01	 7.78081662E-01
1.32800000E+08	-2.82263460E-01	 7.78176015E-01
1.33333333E+08	-2.75481444E-01	 7.77935987E-01
1.33866667E+08	-2.68998207E-01	 7.78023930E-01
1.34400000E+08	-2.62152867E-01	 7.78095036E-01
1.34933333E+08	-2.55502560E-01	 7.77865590E-01
1.35466667E+08	-2.48654715E-01	 7.77800528E-01
1.36000000E+08	-2.41980605E-01	 7.77392664E-01
1.36533333E+08	-2.35294511E-01	 7.77012130E-01
1.37066666E+08	-2.28326601E-01	 7.76467683E-01
1.37600000E+08	-2.21630216E-01	 7.76044933E-01
1.38133334E+08	-2.14690762E-01	 7.75305662E-01
1.38666666E+08	-2.07769597E-01	 7.74658281E-01
1.39200000E+08	-2.01062803E-01	 7.73894153E-01
1.39733334E+08	-1.94013505E-01	 7.72982528E-01
1.40266666E+08	-1.86952514E-01	 7.72002273E-01
1.40800000E+08	-1.79965354E-01	 7.70915472E-01
1.41333334E+08	-1.73008387E-01	 7.69714990E-01
1.41866666E+08	-1.65738298E-01	 7.68309646E-01
1.42400000E+08	-1.58424721E-01	 7.66720664E-01
1.42933334E+08	-1.51363942E-01	 7.65257131E-01
1.43466667E+08	-1.44197981E-01	 7.63651131E-01
1.44000000E+08	-1.36832911E-01	 7.62070527E-01
1.44533333E+08	-1.29762835E-01	 7.60204730E-01
1.45066667E+08	-1.22414388E-01	 7.58239893E-01
1.45600000E+08	-1.15211065E-01	 7.56264989E-01
1.46133333E+08	-1.08036104E-01	 7.53989510E-01
1.46666667E+08	-1.00813619E-01	 7.51694521E-01
1.47200000E+08	-9.36722175E-02	 7.49295747E-01
1.47733333E+08	-8.63154009E-02	 7.46774738E-01
1.48266667E+08	-7.90397590E-02	 7.43959785E-01
1.48800000E+08	-7.17061240E-02	 7.41337788E-01
1.49333333E+08	-6.43021942E-02	 7.38465038E-01
1.49866667E+08	-5.72590947E-02	 7.35417952E-01
1.50400000E+08	-4.99398591E-02	 7.32306020E-01
1.50933333E+08	-4.26670214E-02	 7.28884241E-01
1.51466667E+08	-3.54266164E-02	 7.25275595E-01
1.52000000E+08	-2.80221940E-02	 7.22012510E-01
1.52533333E+08	-2.07140527E-02	 7.18140263E-01
1.53066667E+08	-1.35896709E-02	 7.14475112E-01
1.53600000E+08	-6.39718663E-03	 7.10458892E-01
1.54133333E+08	 8.89704659E-04	 7.06085630E-01
1.54666667E+08	 7.91771412E-03	 7.01839198E-01
1.55200000E+08	 1.50437220E-02	 6.97328292E-01
1.55733333E+08	 2.22960636E-02	 6.92654721E-01
1.56266667E+08	 2.92988677E-02	 6.88035228E-01
1.56800000E+08	 3.62575642E-02	 6.83077980E-01
1.57333333E+08	 4.32220567E-02	 6.77908878E-01
1.57866666E+08	 5.02082722E-02	 6.72977904E-01
1.58400000E+08	 5.70518599E-02	 6.67547611E-01
1.58933334E+08	 6.39817500E-02	 6.62062799E-01
1.59466666E+08	 7.08630086E-02	 6.56364905E-01
1.60000000E+08	 7.71945681E-02	 6.50509016E-01
1.60533334E+08	 8.39866926E-02	 6.44364863E-01
1.61066666E+08	 9.04230010E-02	 6.38168165E-01
1.61600000E+08	 9.71397281E-02	 6.31836421E-01
1.62133334E+08	 1.03419938E-01	 6.25311909E-01
1.62666667E+08	 1.09556969E-01	 6.18765368E-01
1.63200000E+08	 1.15969406E-01	 6.11851007E-01
1.63733333E+08	 1.22083164E-01	 6.04882790E-01
1.64266667E+08	 1.27814638E-01	 5.97780774E-01
1.64800000E+08	 1.33784226E-01	 5.90449074E-01
1.65333333E+08	 1.39456525E-01	 5.82878200E-01
1.65866667E+08	 1.45081893E-01	 5.75140903E-01
1.66400000E+08	 1.50423191E-01	 5.67346174E-01
1.66933333E+08	 1.55751812E-01	 5.59288794E-01
1.67466667E+08	 1.60937287E-01	 5.51087841E-01
1.68000000E+08	 1.65773185E-01	 5.43127000E-01
1.68533333E+08	 1.70822511E-01	 5.34531042E-01
1.69066667E+08	 1.75587507E-01	 5.25881450E-01
1.69600000E+08	 1.80039199E-01	 5.16883365E-01
1.70133333E+08	 1.84492376E-01	 5.08108432E-01
1.70666667E+08	 1.88614478E-01	 4.98832142E-01
1.71200000E+08	 1.92437699E-01	 4.89548544E-01
1.71733333E+08	 1.96312777E-01	 4.80478376E-01
1.72266667E+08	 2.00094265E-01	 4.70767258E-01
1.72800000E+08	 2.03262008E-01	 4.61295747E-01
1.73333333E+08	 2.06339037E-01	 4.51503202E-01
1.73866667E+08	 2.09285920E-01	 4.41571786E-01
1.74400000E+08	 2.11982006E-01	 4.31590175E-01
1.74933333E+08	 2.14288835E-01	 4.21338215E-01
1.75466667E+08	 2.16357950E-01	 4.11260807E-01
1.76000000E+08	 2.18354692E-01	 4.00892334E-01
1.76533333E+08	 2.20034472E-01	 3.90375394E-01
1.77066666E+08	 2.21372203E-01	 3.80026955E-01
1.77600000E+08	 2.22452591E-01	 3.69615057E-01
1.78133334E+08	 2.23391737E-01	 3.58674288E-01
1.78666666E+08	 2.23804929E-01	 3.48167114E-01
1.79200000E+08	 2.24297648E-01	 3.37304298E-01
1.79733334E+08	 2.24179472E-01	 3.26420922E-01
1.80266666E+08	 2.23799388E-01	 3.15471004E-01
1.80800000E+08	 2.23094802E-01	 3.04655653E-01
1.81333334E+08	 2.22035511E-01	 2.93753672E-01
1.81866666E+08	 2.20823314E-01	 2.82825278E-01
1.82400000E+08	 2.19226848E-01	 2.71897014E-01
1.82933334E+08	 2.17341518E-01	 2.61087226E-01
1.83466667E+08	 2.15182002E-01	 2.50149778E-01
1.84000000E+08	 2.12528534E-01	 2.39388580E-01
1.84533333E+08	 2.09716335E-01	 2.28655200E-01
1.85066667E+08	 2.06455784E-01	 2.17961211E-01
1.85600000E+08	 2.02803995E-01	 2.07320966E-01
1.86133333E+08	 1.98948908E-01	 1.96731373E-01
1.86666667E+08	 1.94764459E-01	 1.86220233E-01
1.87200000E+08	 1.90096851E-01	 1.75893878E-01
1.87733333E+08	 1.85284915E-01	 1.65701071E-01
1.88266667E+08	 1.80051899E-01	 1.55695693E-01
1.88800000E+08	 1.74529860E-01	 1.45809529E-01
1.89333333E+08	 1.68686484E-01	 1.36038903E-01
1.89866667E+08	 1.62610743E-01	 1.26421433E-01
1.90400000E+08	 1.55934940E-01	 1.17026180E-01
1.90933333E+08	 1.49145481E-01	 1.07803935E-01
1.91466667E+08	 1.42133240E-01	 9.89147611E-02
1.92000000E+08	 1.34669933E-01	 9.02806136E-02
1.92533333E+08	 1.27046156E-01	 8.17298305E-02
1.93066667E+08	 1.19151874E-01	 7.34427802E-02
1.93600000E+08	 1.10863764E-01	 6.54345342E-02
1.94133333E+08	 1.02390735E-01	 5.76967936E-02
1.94666667E+08	 9.34864794E-02	 5.03049021E-02
1.95200000E+08	 8.44813519E-02	 4.31931677E-02
1.95733333E+08	 7.52468788E-02	 3.63623682E-02
1.96266667E+08	 6.58761788E-02	 2.98636882E-02
1.96800000E+08	 5.61113956E-02	 2.36154779E-02
1.97333333E+08	 4.62633853E-02	 1.78486514E-02
1.97866666E+08	 3.61465042E-02	 1.22773092E-02
1.98400000E+08	 2.58825344E-02	 7.16862146E-03
1.98933334E+08	 1.54901963E-02	 2.42706986E-03
1.99466666E+08	 4.96955592E-03	-2.01903687E-03
2.00000000E+08	-5.72893128E-03	-6.00752840E-03
2.00533334E+08	-1.64841029E-02	-9.63869066E-03
2.01066666E+08	-2.74207874E-02	-1.30307533E-02
2.01600000E+08	-3.85037145E-02	-1.59474345E-02
2.02133334E+08	-4.96040728E-02	-1.85280805E-02
2.02666667E+08	-6.08395419E-02	-2.06537011E-02
2.03200000E+08	-7.20328839E-02	-2.23010570E-02
2.03733333E+08	-8.33193797E-02	-2.35767022E-02
2.04266667E+08	-9.46788920E-02	-2.45313436E-02
2.04800000E+08	-1.06034383E-01	-2.50457248E-02
2.05333333E+08	-1.17307137E-01	-2.52379407E-02
2.05866667E+08	-1.28553983E-01	-2.49114736E-02
2.06400000E+08	-1.39811930E-01	-2.42139697E-02
2.06933333E+08	-1.51067412E-01	-2.31079142E-02
2.07466667E+08	-1.62225526E-01	-2.15529547E-02
2.08000000E+08	-1.73250513E-01	-1.97637303E-02
2.08533333E+08	-1.84216455E-01	-1.74745654E-02
2.09066667E+08	-1.95139390E-01	-1.47691142E-02
2.09600000E+08	-2.05901298E-01	-1.17148827E-02
2.10133333E+08	-2.16508715E-01	-8.39779856E-03
2.10666667E+08	-2.27152065E-01	-4.51674281E-03
2.11200000E+08	-2.37496369E-01	-4.56454743E-04
2.11733333E+08	-2.47569483E-01	 3.96673484E-03
2.12266667E+08	-2.57640267E-01	 8.77292551E-03
2.12800000E+08	-2.67435118E-01	 1.38445825E-02
2.13333333E+08	-2.77073352E-01	 1.93137819E-02
2.13866667E+08	-2.86437541E-01	 2.51003571E-02
2.14400000E+08	-2.95693414E-01	 3.13318177E-02
2.14933333E+08	-3.04515199E-01	 3.78059635E-02
2.15466667E+08	-3.13356590E-01	 4.45071500E-02
2.16000000E+08	-3.22055401E-01	 5.14405759E-02
2.16533333E+08	-3.30122197E-01	 5.88416164E-02
2.17066666E+08	-3.38200303E-01	 6.65948477E-02
2.17600000E+08	-3.45860727E-01	 7.44122702E-02
2.18133334E+08	-3.53365886E-01	 8.25167577E-02
2.18666666E+08	-3.60534412E-01	 9.08023376E-02
2.19200000E+08	-3.67394746E-01	 9.96105013E-02
2.19733334E+08	-3.73948799E-01	 1.08189475E-01
2.20266666E+08	-3.80319374E-01	 1.17250264E-01
2.20800000E+08	-3.86233413E-01	 1.26456567E-01
2.21333334E+08	-3.92088732E-01	 1.35839909E-01
2.21866666E+08	-3.97457170E-01	 1.45677258E-01
2.22400000E+08	-4.02354306E-01	 1.55510170E-01
2.22933334E+08	-4.07136374E-01	 1.65570248E-01
2.23466667E+08	-4.11445663E-01	 1.75773547E-01
2.24000000E+08	-4.15519040E-01	 1.85797164E-01
2.24533333E+08	-4.19349381E-01	 1.96321787E-01
2.25066667E+08	-4.22776192E-01	 2.06795830E-01
2.25600000E+08	-4.25919990E-01	 2.17767508E-01
2.26133333E+08	-4.28847134E-01	 2.28723972E-01
2.26666667E+08	-4.31297790E-01	 2.39749198E-01
2.27200000E+08	-4.33470569E-01	 2.50811977E-01
2.27733333E+08	-4.35115819E-01	 2.61788881E-01
2.28266667E+08	-4.36421879E-01	 2.73231464E-01
2.28800000E+08	-4.37642848E-01	 2.84488316E-01
2.29333333E+08	-4.38443772E-01	 2.95865660E-01
2.29866667E+08	-4.38767326E-01	 3.07260326E-01
2.30400000E+08	-4.38729898E-01	 3.18670085E-01
2.30933333E+08	-4.38414929E-01	 3.30162500E-01
2.31466667E+08	-4.37626182E-01	 3.41646874E-01
2.32000000E+08	-4.36579650E-01	 3.53278142E-01
2.32533333E+08	-4.35131956E-01	 3.64713758E-01
2.33066667E+08	-4.33652609E-01	 3.76339815E-01
2.33600000E+08	-4.31602592E-01	 3.87988656E-01
2.34133333E+08	-4.29234167E-01	 3.99526099E-01
2.34666667E+08	-4.26423111E-01	 4.11158429E-01
2.35200000E+08	-4.23522032E-01	 4.22671866E-01
2.35733333E+08	-4.19909880E-01	 4.34185984E-01
2.36266667E+08	-4.16042545E-01	 4.45692776E-01
2.36800000E+08	-4.11876903E-01	 4.57111694E-01
2.37333333E+08	-4.07418771E-01	 4.68550182E-01
2.37866666E+08	-4.02475710E-01	 4.79987508E-01
2.38400000E+08	-3.97410195E-01	 4.91369113E-01
2.38933334E+08	-3.91868392E-01	 5.02586591E-01
2.39466666E+08	-3.85859852E-01	 5.13634905E-01
2.40000000E+08	-3.79593103E-01	 5.24719065E-01
2.40533334E+08	-3.72974141E-01	 5.35844597E-01
2.41066666E+08	-3.66033109E-01	 5.46709371E-01
2.41600000E+08	-3.58737247E-01	 5.57498581E-01
2.42133334E+08	-3.51130803E-01	 5.68159404E-01
2.42666667E+08	-3.43005850E-01	 5.78675268E-01
2.43200000E+08	-3.34564152E-01	 5.89058835E-01
2.43733333E+08	-3.25931179E-01	 5.99465534E-01
2.44266667E+08	-3.16743950E-01	 6.09503600E-01
2.44800000E+08	-3.07203832E-01	 6.19629123E-01
2.45333333E+08	-2.97215559E-01	 6.29251102E-01
2.45866667E+08	-2.86950167E-01	 6.39115752E-01
2.46400000E+08	-2.76399156E-01	 6.48635585E-01
2.46933333E+08	-2.65458250E-01	 6.57830367E-01
2.47466667E+08	-2.54252286E-01	 6.67184399E-01
2.48000000E+08	-2.42527371E-01	 6.75843878E-01
2.48533333E+08	-2.30426540E-01	 6.84859325E-01
2.49066667E+08	-2.17821534E-01	 6.93128972E-01
2.49600000E+08	-2.04963026E-01	 7.01348636E-01
2.50133333E+08	-1.91894810E-01	 7.09479463E-01
2.50666667E+08	-1.78624412E-01	 7.17227213E-01
2.51200000E+08	-1.64963553E-01	 7.24343018E-01
2.51733333E+08	-1.50460429E-01	 7.31686374E-01
2.52266667E+08	-1.35970430E-01	 7.38474432E-01
2.52800000E+08	-1.20859095E-01	 7.45349549E-01
2.53333333E+08	-1.05290348E-01	 7.51630292E-01
2.53866667E+08	-8.97091658E-02	 7.57261338E-01
2.54400000E+08	-7.34709397E-02	 7.62973121E-01
2.54933333E+08	-5.68154314E-02	 7.68398391E-01
2.55466667E+08	-4.01839294E-02	 7.73304939E-01
2.56000000E+08	-2.25283582E-02	 7.77417321E-01
2.56533333E+08	-4.81342343E-03	 7.81725979E-01
2.57066666E+08	 1.30774013E-02	 7.85330835E-01
2.57600000E+08	 3.11613365E-02	 7.88445883E-01
2.58133334E+08	 5.01452043E-02	 7.91030054E-01
2.58666666E+08	 6.94031359E-02	 7.93609409E-01
2.59200000E+08	 8.89859102E-02	 7.94907763E-01
2.59733334E+08	 1.08569602E-01	 7.96077587E-01
2.60266666E+08	 1.28765998E-01	 7.96653754E-01
2.60800000E+08	 1.49205389E-01	 7.97007675E-01
2.61333334E+08	 1.70118273E-01	 7.96242036E-01
2.61866666E+08	 1.91404430E-01	 7.95488613E-01
2.62400000E+08	 2.13065617E-01	 7.93824194E-01
2.62933334E+08	 2.34750535E-01	 7.91240644E-01
2.63466667E+08	 2.56826835E-01	 7.87946928E-01
2.64000000E+08	 2.79341491E-01	 7.83609625E-01
2.64533333E+08	 3.01983907E-01	 7.78785593E-01
2.65066667E+08	 3.24970288E-01	 7.73305134E-01
2.65600000E+08	 3.47896384E-01	 7.66894154E-01
2.66133333E+08	 3.71376333E-01	 7.59898297E-01
2.66666667E+08	 3.94853091E-01	 7.51819194E-01
2.67200000E+08	 4.18321932E-01	 7.42923151E-01
2.67733333E+08	 4.41902803E-01	 7.33298254E-01
2.68266667E+08	 4.65987900E-01	 7.22516722E-01
2.68800000E+08	 4.90083879E-01	 7.10133443E-01
2.69333333E+08	 5.13680649E-01	 6.97686781E-01
2.69866667E+08	 5.37395617E-01	 6.83789802E-01
2.70400000E+08	 5.61317188E-01	 6.68756561E-01
2.70933333E+08	 5.84994692E-01	 6.52878413E-01
2.71466667E+08	 6.08417181E-01	 6.35372530E-01
2.72000000E+08	 6.31887622E-01	 6.16887083E-01
2.72533333E+08	 6.54909426E-01	 5.97327436E-01
2.73066667E+08	 6.77563330E-01	 5.76621882E-01
2.73600000E+08	 6.99801551E-01	 5.54517263E-01
2.74133333E+08	 7.21645135E-01	 5.31224196E-01
2.74666667E+08	 7.43053848E-01	 5.06703003E-01
2.75200000E+08	 7.63593442E-01	 4.80989692E-01
2.75733333E+08	 7.83710263E-01	 4.53859387E-01
2.76266667E+08	 8.02707252E-01	 4.25604047E-01
2.76800000E+08	 8.21080338E-01	 3.96360426E-01
2.77333333E+08	 8.38334343E-01	 3.65695131E-01
2.77866666E+08	 8.54874624E-01	 3.33903761E-01
2.78400000E+08	 8.70046993E-01	 3.00735074E-01
2.78933334E+08	 8.84152594E-01	 2.66734505E-01
2.79466666E+08	 8.96866825E-01	 2.31572695E-01
2.80000000E+08	 9.08147640E-01	 1.94991583E-01
