!Agilent Technologies,N5230C,MY48100348,A.08.04.10
!Agilent N5230C: A.08.04.10
!Date: Saturday, November 01, 2025 08:54:11
!Correction: S11(Full 2 Port(1,2)) 
!S21(Full 2 Port(1,2)) 
!S12(Full 2 Port(1,2)) 
!S22(Full 2 Port(1,2)) 
!S2P File: Measurements: S11, S21, S12, S22:
# Hz S  dB   R 50
300000 3.717675e-003 -9.770750e-002 -6.400693e+001 1.211281e+002 -8.063261e+001 4.098631e+001 -2.206885e-003 1.080699e-001
9298500 1.946692e-003 -2.903245e+000 -8.544517e+001 -3.039652e+001 -8.906611e+001 1.510764e+002 3.593788e-003 7.647390e-001
18297000 -6.486189e-003 -2.271514e+000 -8.319233e+001 8.567550e+001 -8.586233e+001 4.992951e+001 -1.159291e-003 -2.357572e+000
27295500 -8.290634e-003 -3.454849e+000 -8.381357e+001 1.627812e+002 -8.793436e+001 -5.358644e+001 -8.022060e-003 -3.458497e+000
36294000 -6.060977e-003 -4.481823e+000 -1.016698e+002 -1.600127e+002 -8.415963e+001 -1.636945e+002 -2.823436e-003 -4.649757e+000
45292500 -2.161842e-002 -5.798948e+000 -8.667173e+001 9.264917e+001 -7.130337e+001 1.161637e+002 -1.475280e-002 -5.777572e+000
54291000 -1.800585e-002 -6.871423e+000 -7.927879e+001 1.355765e+002 -9.046525e+001 7.081432e+001 -1.848325e-002 -6.847364e+000
63289500 -2.264559e-002 -8.115744e+000 -7.691993e+001 7.607848e+001 -9.120823e+001 -1.325334e+002 -2.928574e-002 -8.071291e+000
72288000 -2.444375e-002 -9.237046e+000 -8.258959e+001 6.802810e+001 -7.738860e+001 9.874462e+001 -3.029293e-002 -9.266028e+000
81286500 -2.883157e-002 -1.037022e+001 -8.107280e+001 7.337645e+001 -7.695402e+001 1.207877e+002 -3.234189e-002 -1.048191e+001
90285000 -3.531851e-002 -1.151106e+001 -8.151569e+001 -2.204908e+001 -7.891610e+001 1.868140e+001 -4.247972e-002 -1.165785e+001
99283500 -4.125400e-002 -1.266835e+001 -7.775762e+001 2.713935e+001 -7.642422e+001 1.397071e+002 -4.888411e-002 -1.288787e+001
108282000 -4.465376e-002 -1.375464e+001 -8.682609e+001 -1.276704e+002 -7.514535e+001 3.930582e+001 -5.085341e-002 -1.403805e+001
117280500 -5.067144e-002 -1.488123e+001 -7.919316e+001 4.565572e+001 -8.012106e+001 2.745305e+001 -9.471773e-002 -1.506295e+001
126279000 -1.072443e-001 -1.567174e+001 -7.975185e+001 3.287445e+001 -9.702479e+001 8.205581e+001 -8.463117e-002 -1.561349e+001
135277500 3.072314e-004 -1.687864e+001 -7.518339e+001 6.577777e+000 -7.705820e+001 2.430357e+001 -4.121773e-002 -1.858849e+001
144276000 -4.934644e-002 -1.902209e+001 -8.243099e+001 3.300085e+001 -8.056387e+001 -8.168007e+000 -9.405387e-002 -1.902163e+001
153274500 -1.043397e-003 -2.008747e+001 -7.555161e+001 7.062593e+001 -8.781351e+001 -8.355498e+001 -4.158344e-002 -2.033648e+001
162273000 -1.062133e-001 -2.045115e+001 -8.530392e+001 -1.495388e+002 -7.710214e+001 3.053723e+000 -8.251683e-002 -2.172554e+001
171271500 -5.217899e-002 -2.174058e+001 -8.839107e+001 -1.202998e+002 -8.336697e+001 1.273620e+002 -1.023733e-001 -2.233943e+001
180270000 -5.170587e-002 -2.301881e+001 -7.811903e+001 8.954227e+001 -7.595920e+001 5.732081e+000 -8.341534e-002 -2.378240e+001
189268500 -4.902850e-002 -2.423527e+001 -7.733110e+001 1.181557e+002 -8.436069e+001 1.255223e+002 -7.022298e-002 -2.494700e+001
198267000 -5.050912e-002 -2.545000e+001 -8.328477e+001 8.328772e+001 -7.708182e+001 4.766274e+000 -7.130710e-002 -2.621170e+001
207265500 -5.499898e-002 -2.667790e+001 -7.706588e+001 -1.170754e+002 -7.935443e+001 -1.422375e+002 -7.835815e-002 -2.742771e+001
216264000 -6.638328e-002 -2.798883e+001 -8.251445e+001 5.077058e+001 -8.185437e+001 3.325740e+001 -7.323682e-002 -2.876852e+001
225262500 -5.593709e-002 -2.911963e+001 -8.411913e+001 1.565020e+002 -7.453851e+001 1.000733e+002 -7.891513e-002 -2.990331e+001
234261000 -5.875583e-002 -3.033496e+001 -8.060593e+001 1.382211e+002 -7.661607e+001 5.671525e+001 -8.327767e-002 -3.112263e+001
243259500 -6.177951e-002 -3.160541e+001 -7.590364e+001 -4.171671e+000 -7.234935e+001 9.198500e+001 -8.762456e-002 -3.235227e+001
252258000 -6.117760e-002 -3.278400e+001 -8.307211e+001 7.739133e+001 -7.792068e+001 1.022995e+001 -8.912287e-002 -3.360316e+001
261256500 -6.444767e-002 -3.409437e+001 -9.343139e+001 1.767447e+002 -8.180293e+001 1.624375e+002 -9.066390e-002 -3.487832e+001
270255000 -6.602504e-002 -3.533470e+001 -8.847254e+001 1.738346e+002 -8.983292e+001 -9.370107e+001 -9.467958e-002 -3.620023e+001
279253500 -6.485308e-002 -3.665091e+001 -8.523818e+001 4.284171e+001 -8.797545e+001 -4.541836e+001 -1.097935e-001 -3.750808e+001
288252000 -6.644727e-002 -3.796614e+001 -9.907285e+001 1.231136e+002 -7.632887e+001 1.006565e+002 -1.081718e-001 -3.889807e+001
297250500 -6.272514e-002 -3.936324e+001 -7.720664e+001 -1.524612e+002 -7.364542e+001 -9.369407e+001 -1.074199e-001 -4.039866e+001
306249000 -6.630991e-002 -4.050787e+001 -8.052142e+001 -1.063261e+002 -8.209446e+001 -8.979749e+001 -1.257840e-001 -4.178645e+001
315247500 -6.810883e-002 -4.209705e+001 -8.098706e+001 -1.696371e+002 -7.961249e+001 -1.637878e+002 -1.268292e-001 -4.324413e+001
324246000 -7.865897e-002 -4.339759e+001 -7.768877e+001 -1.235781e+002 -7.767387e+001 -1.056440e+002 -1.403398e-001 -4.463628e+001
333244500 -6.879058e-002 -4.461274e+001 -7.348335e+001 -1.340182e+002 -7.197120e+001 -1.494597e+002 -1.291908e-001 -4.601426e+001
342243000 -7.798113e-002 -4.603680e+001 -7.631609e+001 -1.194228e+002 -8.062717e+001 -6.887798e+001 -1.555221e-001 -4.739857e+001
351241500 -7.330433e-002 -4.748115e+001 -7.206049e+001 -1.679328e+002 -7.072776e+001 -1.371410e+002 -1.602763e-001 -4.887312e+001
360240000 -7.482501e-002 -4.895395e+001 -7.778955e+001 -1.689996e+002 -7.088891e+001 -1.511870e+002 -1.607076e-001 -5.039378e+001
369238500 -7.559647e-002 -5.042898e+001 -7.014531e+001 -1.424194e+002 -6.992705e+001 -1.456271e+002 -1.537947e-001 -5.191150e+001
378237000 -7.184009e-002 -5.188285e+001 -7.067602e+001 -1.534720e+002 -7.029144e+001 -1.473075e+002 -1.629314e-001 -5.347063e+001
387235500 -7.099388e-002 -5.341114e+001 -6.922197e+001 -1.420962e+002 -7.074260e+001 -1.678324e+002 -1.649054e-001 -5.509475e+001
396234000 -7.473938e-002 -5.501974e+001 -6.642464e+001 -1.530663e+002 -6.610635e+001 -1.465833e+002 -1.700859e-001 -5.676926e+001
405232500 -7.050465e-002 -5.658405e+001 -6.673610e+001 -1.439059e+002 -6.551511e+001 -1.454662e+002 -1.769868e-001 -5.838718e+001
414231000 -7.336701e-002 -5.822172e+001 -6.424308e+001 -1.460134e+002 -6.562113e+001 -1.552759e+002 -1.870814e-001 -6.010552e+001
423229500 -8.158711e-002 -5.993948e+001 -6.247382e+001 -1.609729e+002 -6.301460e+001 -1.591955e+002 -1.917675e-001 -6.181516e+001
432228000 -7.780558e-002 -6.162667e+001 -6.216895e+001 -1.574116e+002 -6.213608e+001 -1.580212e+002 -2.018422e-001 -6.360286e+001
441226500 -8.916871e-002 -6.338644e+001 -6.045026e+001 -1.557356e+002 -6.062525e+001 -1.550213e+002 -2.086710e-001 -6.542512e+001
450225000 -8.732910e-002 -6.515687e+001 -5.864875e+001 -1.579378e+002 -5.787548e+001 -1.641452e+002 -2.129470e-001 -6.735411e+001
459223500 -8.733714e-002 -6.705583e+001 -5.732716e+001 -1.624601e+002 -5.783421e+001 -1.651890e+002 -2.226131e-001 -6.928625e+001
468222000 -9.137714e-002 -6.894794e+001 -5.567686e+001 -1.662836e+002 -5.572530e+001 -1.638972e+002 -2.223717e-001 -7.128646e+001
477220500 -9.358937e-002 -7.089332e+001 -5.418672e+001 -1.689255e+002 -5.497925e+001 -1.679089e+002 -2.282553e-001 -7.339371e+001
486219000 -9.400312e-002 -7.291063e+001 -5.355756e+001 -1.729905e+002 -5.414709e+001 -1.733724e+002 -2.356819e-001 -7.551063e+001
495217500 -1.019239e-001 -7.502537e+001 -5.194339e+001 -1.764120e+002 -5.221687e+001 -1.786257e+002 -2.323133e-001 -7.772504e+001
504216000 -1.049899e-001 -7.713719e+001 -5.114326e+001 -1.747176e+002 -5.114351e+001 -1.783273e+002 -2.418027e-001 -8.003867e+001
513214500 -1.004071e-001 -7.935119e+001 -4.917646e+001 1.789017e+002 -4.977203e+001 1.780835e+002 -2.525077e-001 -8.239372e+001
522213000 -1.031500e-001 -8.164708e+001 -4.809583e+001 1.786636e+002 -4.804353e+001 1.773070e+002 -2.559008e-001 -8.486456e+001
531211500 -1.141854e-001 -8.405676e+001 -4.687801e+001 1.765003e+002 -4.687711e+001 1.730551e+002 -2.600491e-001 -8.742529e+001
540210000 -1.125769e-001 -8.657374e+001 -4.536158e+001 1.744251e+002 -4.539174e+001 1.725223e+002 -2.721050e-001 -9.014536e+001
549208500 -1.123809e-001 -8.919097e+001 -4.374232e+001 1.703634e+002 -4.400676e+001 1.691809e+002 -2.837015e-001 -9.294924e+001
558207000 -1.170434e-001 -9.193496e+001 -4.230043e+001 1.674444e+002 -4.239795e+001 1.646041e+002 -2.942065e-001 -9.597385e+001
567205500 -1.301450e-001 -9.485600e+001 -4.058852e+001 1.636464e+002 -4.101511e+001 1.631231e+002 -3.097123e-001 -9.913371e+001
576204000 -1.457321e-001 -9.787968e+001 -3.910939e+001 1.608858e+002 -3.948843e+001 1.586221e+002 -3.238850e-001 -1.025043e+002
585202500 -1.485289e-001 -1.011729e+002 -3.751287e+001 1.554573e+002 -3.783309e+001 1.546204e+002 -3.463190e-001 -1.060488e+002
594201000 -1.635096e-001 -1.046542e+002 -3.597344e+001 1.508448e+002 -3.615136e+001 1.512504e+002 -3.638863e-001 -1.098837e+002
603199500 -1.748870e-001 -1.082938e+002 -3.436656e+001 1.464743e+002 -3.458104e+001 1.461677e+002 -3.890220e-001 -1.139670e+002
612198000 -1.890581e-001 -1.121869e+002 -3.273416e+001 1.416180e+002 -3.296893e+001 1.412568e+002 -4.091236e-001 -1.183834e+002
621196500 -2.111044e-001 -1.163091e+002 -3.105169e+001 1.369624e+002 -3.135804e+001 1.360447e+002 -4.375165e-001 -1.231734e+002
630195000 -2.337684e-001 -1.207712e+002 -2.937942e+001 1.318077e+002 -2.968685e+001 1.313625e+002 -4.699391e-001 -1.283447e+002
639193500 -2.576227e-001 -1.256040e+002 -2.758862e+001 1.260804e+002 -2.797635e+001 1.263797e+002 -5.077714e-001 -1.340773e+002
648192000 -2.890339e-001 -1.307150e+002 -2.576164e+001 1.202341e+002 -2.605937e+001 1.211226e+002 -5.551763e-001 -1.402978e+002
657190500 -3.340764e-001 -1.363578e+002 -2.392707e+001 1.135292e+002 -2.413241e+001 1.145290e+002 -6.086053e-001 -1.472705e+002
666189000 -3.809100e-001 -1.424974e+002 -2.203988e+001 1.060809e+002 -2.214196e+001 1.068637e+002 -6.760720e-001 -1.550829e+002
675187500 -4.456044e-001 -1.491737e+002 -2.010241e+001 9.788017e+001 -2.020881e+001 9.815601e+001 -7.599365e-001 -1.639010e+002
684186000 -5.308872e-001 -1.565291e+002 -1.814465e+001 8.863417e+001 -1.833779e+001 8.842356e+001 -8.670235e-001 -1.738703e+002
693184500 -6.343061e-001 -1.645873e+002 -1.620339e+001 7.806906e+001 -1.651895e+001 7.824228e+001 -1.010383e+000 1.748861e+002
702183000 -7.673059e-001 -1.733842e+002 -1.435777e+001 6.633183e+001 -1.471360e+001 6.750966e+001 -1.191036e+000 1.621798e+002
711181500 -9.431720e-001 1.768954e+002 -1.262046e+001 5.348319e+001 -1.289740e+001 5.570673e+001 -1.416639e+000 1.478682e+002
720180000 -1.173781e+000 1.666266e+002 -1.101826e+001 3.989312e+001 -1.115558e+001 4.252459e+001 -1.689819e+000 1.321971e+002
729178500 -1.449236e+000 1.555838e+002 -9.557737e+000 2.518201e+001 -9.568098e+000 2.782506e+001 -2.012798e+000 1.151217e+002
738177000 -1.764956e+000 1.440171e+002 -8.336251e+000 9.599694e+000 -8.226291e+000 1.209329e+001 -2.374123e+000 9.706548e+001
747175500 -2.123243e+000 1.319666e+002 -7.411716e+000 -6.157073e+000 -7.207908e+000 -4.022063e+000 -2.745618e+000 7.845013e+001
756174000 -2.465621e+000 1.195911e+002 -6.705199e+000 -2.122479e+001 -6.437136e+000 -1.965737e+001 -3.135240e+000 5.986592e+001
765172500 -2.811015e+000 1.074606e+002 -6.110684e+000 -3.488259e+001 -5.817916e+000 -3.396656e+001 -3.472510e+000 4.253678e+001
774171000 -3.123766e+000 9.493657e+001 -5.514782e+000 -4.857505e+001 -5.238631e+000 -4.812714e+001 -3.745629e+000 2.575870e+001
783169500 -3.402954e+000 8.262601e+001 -4.973168e+000 -6.232783e+001 -4.731461e+000 -6.198462e+001 -4.006718e+000 1.023447e+001
792168000 -3.636671e+000 7.054509e+001 -4.556499e+000 -7.628201e+001 -4.317788e+000 -7.572385e+001 -4.252042e+000 -4.180071e+000
801166500 -3.872898e+000 5.876347e+001 -4.326686e+000 -8.983211e+001 -4.000872e+000 -8.916411e+001 -4.509202e+000 -1.778795e+001
810165000 -4.164110e+000 4.760698e+001 -4.211937e+000 -1.020429e+002 -3.750082e+000 -1.020601e+002 -4.822679e+000 -3.083487e+001
819163500 -4.514185e+000 3.734289e+001 -4.038054e+000 -1.129855e+002 -3.543666e+000 -1.144932e+002 -5.245141e+000 -4.358977e+001
828162000 -4.935735e+000 2.807165e+001 -3.704763e+000 -1.236859e+002 -3.328450e+000 -1.265349e+002 -5.813226e+000 -5.667065e+001
837160500 -5.459729e+000 2.000734e+001 -3.261377e+000 -1.350650e+002 -3.109254e+000 -1.384761e+002 -6.620766e+000 -7.071736e+001
846159000 -6.133628e+000 1.346709e+001 -2.795149e+000 -1.476606e+002 -2.863074e+000 -1.506516e+002 -7.796475e+000 -8.676736e+001
855157500 -6.968620e+000 9.601357e+000 -2.460627e+000 -1.613572e+002 -2.635241e+000 -1.633472e+002 -9.505226e+000 -1.064717e+002
864156000 -7.791034e+000 9.697517e+000 -2.313692e+000 -1.756591e+002 -2.484156e+000 -1.766849e+002 -1.189328e+001 -1.337233e+002
873154500 -8.165586e+000 1.407966e+001 -2.351844e+000 1.699954e+002 -2.465926e+000 1.694712e+002 -1.419916e+001 -1.765367e+002
882153000 -7.659308e+000 1.976773e+001 -2.559484e+000 1.554892e+002 -2.613055e+000 1.552935e+002 -1.337803e+001 1.296157e+002
891151500 -6.459956e+000 2.246820e+001 -2.995249e+000 1.410987e+002 -2.983326e+000 1.411197e+002 -1.030647e+001 9.034911e+001
900150000 -5.116478e+000 2.083949e+001 -3.670127e+000 1.275622e+002 -3.551815e+000 1.273511e+002 -7.603501e+000 6.498888e+001
909148500 -3.985087e+000 1.649122e+001 -4.482313e+000 1.153374e+002 -4.322262e+000 1.143625e+002 -5.667480e+000 4.623869e+001
918147000 -3.114187e+000 1.089986e+001 -5.348708e+000 1.041499e+002 -5.274590e+000 1.025780e+002 -4.319276e+000 3.130516e+001
927145500 -2.475656e+000 4.914313e+000 -6.256139e+000 9.373663e+001 -6.325671e+000 9.234107e+001 -3.387026e+000 1.906481e+001
936144000 -2.011591e+000 -8.622679e-001 -7.264694e+000 8.396848e+001 -7.387775e+000 8.357817e+001 -2.712601e+000 8.764699e+000
945142500 -1.667821e+000 -6.308058e+000 -8.378094e+000 7.522717e+001 -8.395891e+000 7.596640e+001 -2.230517e+000 -5.103626e-002
954141000 -1.417385e+000 -1.139023e+001 -9.550514e+000 6.820227e+001 -9.360656e+000 6.911710e+001 -1.883954e+000 -7.722178e+000
963139500 -1.230287e+000 -1.608508e+001 -1.063901e+001 6.287679e+001 -1.028282e+001 6.281657e+001 -1.621817e+000 -1.441763e+001
972138000 -1.087718e+000 -2.035084e+001 -1.155323e+001 5.853939e+001 -1.118796e+001 5.702349e+001 -1.426673e+000 -2.033874e+001
981136500 -9.725816e-001 -2.433511e+001 -1.230990e+001 5.433332e+001 -1.208984e+001 5.195736e+001 -1.267274e+000 -2.564627e+001
990135000 -8.830912e-001 -2.806062e+001 -1.299710e+001 5.005620e+001 -1.294184e+001 4.786285e+001 -1.141294e+000 -3.041029e+001
999133500 -8.126752e-001 -3.157498e+001 -1.365226e+001 4.571322e+001 -1.368437e+001 4.431553e+001 -1.047698e+000 -3.471874e+001
1008132000 -7.544838e-001 -3.486938e+001 -1.433015e+001 4.154966e+001 -1.428384e+001 4.083926e+001 -9.518828e-001 -3.874879e+001
1017130500 -6.991856e-001 -3.797630e+001 -1.496916e+001 3.770232e+001 -1.482220e+001 3.713465e+001 -8.869448e-001 -4.242045e+001
1026129000 -6.638818e-001 -4.099093e+001 -1.557635e+001 3.412722e+001 -1.532096e+001 3.309632e+001 -8.229169e-001 -4.584999e+001
1035127500 -6.207001e-001 -4.383870e+001 -1.611545e+001 3.077960e+001 -1.588891e+001 2.865507e+001 -7.706688e-001 -4.910653e+001
1044126000 -5.882733e-001 -4.655440e+001 -1.663240e+001 2.728455e+001 -1.654639e+001 2.441970e+001 -7.275611e-001 -5.217120e+001
1053124500 -5.591454e-001 -4.914298e+001 -1.716159e+001 2.361595e+001 -1.728466e+001 2.104522e+001 -6.914716e-001 -5.506415e+001
1062123000 -5.394499e-001 -5.162057e+001 -1.775500e+001 2.022754e+001 -1.794011e+001 1.882444e+001 -6.438434e-001 -5.778688e+001
1071121500 -5.149536e-001 -5.399565e+001 -1.837658e+001 1.741311e+001 -1.849280e+001 1.723171e+001 -6.162554e-001 -6.035112e+001
1080120000 -4.906886e-001 -5.631844e+001 -1.893395e+001 1.527981e+001 -1.886194e+001 1.537037e+001 -5.898165e-001 -6.282301e+001
1089118500 -4.802578e-001 -5.855276e+001 -1.940023e+001 1.350059e+001 -1.914972e+001 1.292895e+001 -5.651941e-001 -6.521991e+001
1098117000 -4.622369e-001 -6.071564e+001 -1.975322e+001 1.166536e+001 -1.945675e+001 9.756934e+000 -5.320106e-001 -6.754140e+001
1107115500 -4.607750e-001 -6.282597e+001 -2.008088e+001 9.471894e+000 -1.988383e+001 6.361572e+000 -5.353203e-001 -6.975831e+001
1116114000 -4.329991e-001 -6.488855e+001 -2.044054e+001 6.761244e+000 -2.039227e+001 3.198393e+000 -5.064399e-001 -7.198174e+001
1125112500 -4.247092e-001 -6.688512e+001 -2.083855e+001 4.223609e+000 -2.092297e+001 1.040795e+000 -4.837705e-001 -7.416694e+001
1134111000 -4.228632e-001 -6.885065e+001 -2.126592e+001 2.367655e+000 -2.138941e+001 -2.554717e-001 -4.652266e-001 -7.624327e+001
1143109500 -4.105427e-001 -7.076057e+001 -2.158126e+001 1.113536e+000 -2.167134e+001 -1.093152e+000 -4.536878e-001 -7.823670e+001
1152108000 -4.019060e-001 -7.263892e+001 -2.181482e+001 -2.419321e-001 -2.183747e+001 -2.533344e+000 -4.406028e-001 -8.015277e+001
1161106500 -4.082911e-001 -7.454081e+001 -2.193797e+001 -2.102705e+000 -2.195388e+001 -4.814626e+000 -4.268010e-001 -8.204399e+001
1170105000 -3.928650e-001 -7.635193e+001 -2.203694e+001 -4.733383e+000 -2.209493e+001 -7.800665e+000 -4.159866e-001 -8.391930e+001
1179103500 -3.927828e-001 -7.816029e+001 -2.221609e+001 -8.187011e+000 -2.238485e+001 -1.132797e+001 -4.093474e-001 -8.573518e+001
1188102000 -3.849307e-001 -7.988924e+001 -2.256000e+001 -1.170270e+001 -2.283258e+001 -1.425409e+001 -3.962772e-001 -8.748468e+001
1197100500 -3.725763e-001 -8.162435e+001 -2.305794e+001 -1.464195e+001 -2.334055e+001 -1.628403e+001 -3.857900e-001 -8.920901e+001
1206099000 -3.620322e-001 -8.331020e+001 -2.357425e+001 -1.595728e+001 -2.376864e+001 -1.710087e+001 -3.788386e-001 -9.090648e+001
1215097500 -3.649473e-001 -8.493105e+001 -2.392419e+001 -1.624726e+001 -2.399584e+001 -1.756564e+001 -3.759673e-001 -9.258257e+001
1224096000 -3.537646e-001 -8.659768e+001 -2.411075e+001 -1.683208e+001 -2.414091e+001 -1.855132e+001 -3.744083e-001 -9.419086e+001
1233094500 -3.535486e-001 -8.822279e+001 -2.414133e+001 -1.793721e+001 -2.423183e+001 -2.048664e+001 -3.726769e-001 -9.582086e+001
1242093000 -3.442060e-001 -8.980064e+001 -2.416210e+001 -1.996885e+001 -2.438084e+001 -2.251392e+001 -3.797745e-001 -9.745479e+001
1251091500 -3.451426e-001 -9.143188e+001 -2.430151e+001 -2.281355e+001 -2.463013e+001 -2.502976e+001 -3.817003e-001 -9.908520e+001
1260090000 -3.421030e-001 -9.301710e+001 -2.450834e+001 -2.561791e+001 -2.490256e+001 -2.726164e+001 -3.781941e-001 -1.007448e+002
1269088500 -3.372630e-001 -9.456030e+001 -2.483327e+001 -2.805478e+001 -2.523705e+001 -2.902198e+001 -3.820288e-001 -1.023474e+002
1278087000 -3.295957e-001 -9.612672e+001 -2.513143e+001 -2.944687e+001 -2.547205e+001 -3.024759e+001 -3.833768e-001 -1.039735e+002
1287085500 -3.270546e-001 -9.768660e+001 -2.534056e+001 -3.044006e+001 -2.564547e+001 -3.130932e+001 -3.841262e-001 -1.055271e+002
1296084000 -3.294293e-001 -9.928479e+001 -2.546703e+001 -3.169835e+001 -2.578491e+001 -3.258091e+001 -3.755107e-001 -1.071458e+002
1305082500 -3.216445e-001 -1.007721e+002 -2.551271e+001 -3.352336e+001 -2.589055e+001 -3.433464e+001 -3.792968e-001 -1.086964e+002
1314081000 -3.241218e-001 -1.022837e+002 -2.558263e+001 -3.588509e+001 -2.604208e+001 -3.617556e+001 -3.830037e-001 -1.102341e+002
1323079500 -3.162959e-001 -1.037488e+002 -2.575723e+001 -3.860755e+001 -2.616663e+001 -3.803505e+001 -3.687487e-001 -1.117132e+002
1332078000 -3.087775e-001 -1.052766e+002 -2.604078e+001 -4.102171e+001 -2.633594e+001 -3.987978e+001 -3.606367e-001 -1.131810e+002
1341076500 -3.067780e-001 -1.067104e+002 -2.633806e+001 -4.263073e+001 -2.646940e+001 -4.145877e+001 -3.619514e-001 -1.146314e+002
1350075000 -3.068854e-001 -1.081495e+002 -2.655480e+001 -4.386216e+001 -2.656045e+001 -4.349882e+001 -3.595666e-001 -1.160704e+002
