!Agilent Technologies,E5071C,MY46106184,A.09.10
!Date: Mon Jan 01 00:17:46 2001
!Data & Calibration Information:
!Freq	S11:SOLT2(ON)	S21:SOLT2(ON)	S12:SOLT2(ON)	S22:SOLT2(ON)
# Hz S dB R 50
300000	-2.512498e+001	8.022715e+001	-6.422593e-002	-3.336473e+000	-6.404189e-002	-3.325011e+000	-2.472740e+001	8.085575e+001
2799813	-5.026657e+001	1.013729e+002	1.843195e-002	-9.150027e-001	1.563044e-002	-8.744558e-001	-5.028744e+001	1.029624e+002
5299625	-5.954294e+001	-1.725609e+002	1.417146e-002	-1.260652e+000	1.710285e-002	-1.204716e+000	-6.111110e+001	1.763667e+002
7799438	-5.514039e+001	-1.371275e+002	9.704975e-003	-1.698268e+000	1.005876e-002	-1.696047e+000	-5.424981e+001	-1.353830e+002
10299250	-4.635227e+001	-1.176071e+002	-2.148962e-003	-2.404975e+000	-1.137540e-002	-2.449351e+000	-4.745966e+001	-1.109251e+002
12799063	-4.459986e+001	-1.124792e+002	-2.142128e-003	-2.928480e+000	-1.193269e-002	-2.984383e+000	-4.559368e+001	-1.062561e+002
15298875	-4.488298e+001	-1.074838e+002	3.863097e-003	-3.331110e+000	-8.626917e-004	-3.367343e+000	-4.591335e+001	-1.038815e+002
17798688	-4.525556e+001	-1.068701e+002	-7.137935e-004	-3.685940e+000	-1.857434e-003	-3.705333e+000	-4.565358e+001	-1.008267e+002
20298500	-4.404270e+001	-1.080861e+002	-3.619990e-003	-4.040708e+000	-1.997408e-003	-4.055633e+000	-4.499631e+001	-9.698562e+001
22798313	-4.315848e+001	-1.053806e+002	-4.415658e-003	-4.491752e+000	-2.344524e-003	-4.504044e+000	-4.311601e+001	-9.873055e+001
25298125	-4.184945e+001	-1.033662e+002	-5.554151e-003	-4.999330e+000	-3.283065e-003	-4.990360e+000	-4.238399e+001	-9.625637e+001
27797938	-4.122967e+001	-1.027722e+002	-6.076998e-003	-5.490507e+000	-6.204136e-003	-5.489188e+000	-4.122762e+001	-9.485619e+001
30297750	-4.054769e+001	-1.014473e+002	-7.833387e-003	-5.991914e+000	-8.105571e-003	-5.982353e+000	-4.064310e+001	-9.555322e+001
32797563	-3.973724e+001	-1.016184e+002	-7.970563e-003	-6.479240e+000	-6.099658e-003	-6.483869e+000	-3.986448e+001	-9.583466e+001
35297375	-3.926130e+001	-1.045477e+002	-1.000214e-002	-6.977214e+000	-9.256929e-003	-6.976388e+000	-3.904194e+001	-9.572414e+001
37797188	-3.846628e+001	-1.042094e+002	-9.128749e-003	-7.456342e+000	-1.040953e-002	-7.452819e+000	-3.821315e+001	-9.569687e+001
40297000	-3.779503e+001	-1.054394e+002	-9.755897e-003	-7.936271e+000	-1.177174e-002	-7.955663e+000	-3.765693e+001	-9.621618e+001
42796813	-3.734449e+001	-1.058298e+002	-9.390452e-003	-8.441534e+000	-1.130787e-002	-8.431442e+000	-3.704342e+001	-9.773357e+001
45296625	-3.680055e+001	-1.061104e+002	-1.170198e-002	-8.943418e+000	-1.411795e-002	-8.930639e+000	-3.648061e+001	-9.886522e+001
47796438	-3.626179e+001	-1.058239e+002	-1.228436e-002	-9.452390e+000	-1.514716e-002	-9.413495e+000	-3.590874e+001	-9.886968e+001
50296250	-3.584680e+001	-1.066759e+002	-1.401931e-002	-9.936583e+000	-1.753840e-002	-9.891919e+000	-3.540914e+001	-1.000444e+002
52796063	-3.546545e+001	-1.078770e+002	-1.630341e-002	-1.042549e+001	-1.782392e-002	-1.038723e+001	-3.502910e+001	-1.005245e+002
55295875	-3.496316e+001	-1.085451e+002	-1.759310e-002	-1.088904e+001	-1.898066e-002	-1.086417e+001	-3.464292e+001	-1.010320e+002
57795688	-3.460406e+001	-1.085403e+002	-2.026541e-002	-1.137443e+001	-1.989011e-002	-1.135514e+001	-3.427936e+001	-1.016916e+002
60295500	-3.413002e+001	-1.103042e+002	-2.182326e-002	-1.185486e+001	-2.279991e-002	-1.185997e+001	-3.406369e+001	-1.017417e+002
62795313	-3.389776e+001	-1.103737e+002	-2.318008e-002	-1.234650e+001	-2.369958e-002	-1.233741e+001	-3.367270e+001	-1.024957e+002
65295125	-3.352320e+001	-1.112651e+002	-2.438768e-002	-1.283571e+001	-2.687538e-002	-1.281464e+001	-3.333610e+001	-1.023958e+002
67794938	-3.319269e+001	-1.113277e+002	-2.427223e-002	-1.330727e+001	-2.654018e-002	-1.331774e+001	-3.309658e+001	-1.030838e+002
70294750	-3.296245e+001	-1.122027e+002	-2.728154e-002	-1.380109e+001	-2.737646e-002	-1.379145e+001	-3.281746e+001	-1.039898e+002
72794563	-3.260735e+001	-1.127791e+002	-2.900701e-002	-1.426936e+001	-3.035422e-002	-1.427925e+001	-3.255510e+001	-1.040782e+002
75294375	-3.248906e+001	-1.133040e+002	-2.972127e-002	-1.475453e+001	-2.789477e-002	-1.478322e+001	-3.231287e+001	-1.050320e+002
77794188	-3.206446e+001	-1.132686e+002	-3.179432e-002	-1.523067e+001	-2.885879e-002	-1.526563e+001	-3.198921e+001	-1.052285e+002
80294000	-3.191682e+001	-1.140671e+002	-3.193232e-002	-1.572559e+001	-3.027285e-002	-1.576115e+001	-3.179792e+001	-1.054193e+002
82793813	-3.150823e+001	-1.144248e+002	-3.282861e-002	-1.620173e+001	-3.259052e-002	-1.625302e+001	-3.154308e+001	-1.064452e+002
85293625	-3.130833e+001	-1.147885e+002	-3.476831e-002	-1.669499e+001	-3.218803e-002	-1.673528e+001	-3.135628e+001	-1.068393e+002
87793438	-3.103395e+001	-1.146763e+002	-3.609315e-002	-1.719174e+001	-3.418249e-002	-1.721336e+001	-3.103798e+001	-1.075293e+002
90293250	-3.066778e+001	-1.151799e+002	-3.691111e-002	-1.766785e+001	-3.504525e-002	-1.770563e+001	-3.089779e+001	-1.073097e+002
92793063	-3.062175e+001	-1.159446e+002	-3.670865e-002	-1.816696e+001	-3.671923e-002	-1.819900e+001	-3.067479e+001	-1.074820e+002
95292875	-3.045525e+001	-1.157310e+002	-3.631500e-002	-1.865803e+001	-3.615178e-002	-1.868757e+001	-3.051664e+001	-1.075177e+002
97792688	-3.025853e+001	-1.165463e+002	-3.895783e-002	-1.914072e+001	-3.706600e-002	-1.915256e+001	-3.027700e+001	-1.080758e+002
100292500	-3.010421e+001	-1.168014e+002	-4.051304e-002	-1.963841e+001	-4.011292e-002	-1.962451e+001	-3.009994e+001	-1.084384e+002
102792313	-2.989143e+001	-1.174282e+002	-4.360782e-002	-2.011535e+001	-4.370452e-002	-2.011090e+001	-2.986801e+001	-1.087794e+002
105292125	-2.969907e+001	-1.178588e+002	-4.635461e-002	-2.059879e+001	-4.573091e-002	-2.059897e+001	-2.967779e+001	-1.089175e+002
107791938	-2.947802e+001	-1.185864e+002	-4.939094e-002	-2.108790e+001	-4.847189e-002	-2.107453e+001	-2.945661e+001	-1.094283e+002
110291750	-2.933801e+001	-1.191645e+002	-4.915010e-002	-2.156612e+001	-5.001309e-002	-2.154268e+001	-2.924261e+001	-1.100388e+002
112791563	-2.915328e+001	-1.195267e+002	-5.088563e-002	-2.204262e+001	-5.132204e-002	-2.203321e+001	-2.904648e+001	-1.100475e+002
115291375	-2.898393e+001	-1.201393e+002	-5.325395e-002	-2.252701e+001	-5.322406e-002	-2.251309e+001	-2.888111e+001	-1.104967e+002
117791188	-2.877247e+001	-1.206806e+002	-5.219156e-002	-2.301237e+001	-5.616758e-002	-2.299562e+001	-2.868385e+001	-1.109480e+002
120291000	-2.860673e+001	-1.212319e+002	-5.602065e-002	-2.349594e+001	-5.487136e-002	-2.348268e+001	-2.856626e+001	-1.115544e+002
122790813	-2.849333e+001	-1.216799e+002	-5.687986e-002	-2.398204e+001	-5.785396e-002	-2.396559e+001	-2.840481e+001	-1.118236e+002
125290625	-2.834327e+001	-1.220810e+002	-5.740857e-002	-2.446725e+001	-5.690235e-002	-2.444352e+001	-2.826620e+001	-1.122252e+002
127790438	-2.815816e+001	-1.231312e+002	-5.644421e-002	-2.494641e+001	-5.710995e-002	-2.490812e+001	-2.805838e+001	-1.128524e+002
130290250	-2.798140e+001	-1.234773e+002	-5.968410e-002	-2.541846e+001	-5.743978e-002	-2.540511e+001	-2.793908e+001	-1.135541e+002
132790063	-2.785139e+001	-1.238400e+002	-5.922166e-002	-2.590929e+001	-5.847895e-002	-2.589237e+001	-2.773935e+001	-1.135576e+002
135289875	-2.776255e+001	-1.243171e+002	-6.018247e-002	-2.639431e+001	-5.880194e-002	-2.636557e+001	-2.768592e+001	-1.140189e+002
137789688	-2.758180e+001	-1.254008e+002	-6.116039e-002	-2.686854e+001	-6.030107e-002	-2.684925e+001	-2.750403e+001	-1.146526e+002
140289500	-2.748401e+001	-1.255695e+002	-5.957413e-002	-2.734735e+001	-6.111455e-002	-2.733741e+001	-2.736987e+001	-1.149559e+002
142789313	-2.727970e+001	-1.262608e+002	-6.071912e-002	-2.783621e+001	-6.158754e-002	-2.780341e+001	-2.724108e+001	-1.155470e+002
145289125	-2.715387e+001	-1.266934e+002	-6.165906e-002	-2.831665e+001	-6.277726e-002	-2.829423e+001	-2.709207e+001	-1.159069e+002
147788938	-2.698947e+001	-1.273149e+002	-6.323957e-002	-2.880161e+001	-6.247727e-002	-2.878106e+001	-2.701779e+001	-1.164353e+002
150288750	-2.692466e+001	-1.279955e+002	-6.315067e-002	-2.928324e+001	-6.239188e-002	-2.925387e+001	-2.691455e+001	-1.166455e+002
152788563	-2.675814e+001	-1.285887e+002	-6.536849e-002	-2.976104e+001	-6.516579e-002	-2.973716e+001	-2.675778e+001	-1.167376e+002
155288375	-2.661254e+001	-1.292074e+002	-6.555573e-002	-3.024048e+001	-6.641959e-002	-3.020881e+001	-2.665408e+001	-1.172373e+002
157788188	-2.655853e+001	-1.297821e+002	-6.776093e-002	-3.072414e+001	-6.841185e-002	-3.068879e+001	-2.649513e+001	-1.176460e+002
160288000	-2.641523e+001	-1.304474e+002	-6.930967e-002	-3.120468e+001	-6.897319e-002	-3.118500e+001	-2.639950e+001	-1.179502e+002
162787813	-2.628182e+001	-1.308965e+002	-6.994619e-002	-3.168846e+001	-7.081887e-002	-3.165396e+001	-2.625102e+001	-1.183381e+002
165287625	-2.619376e+001	-1.314123e+002	-6.970658e-002	-3.216420e+001	-7.299981e-002	-3.213419e+001	-2.613695e+001	-1.187303e+002
167787438	-2.607153e+001	-1.321390e+002	-7.064595e-002	-3.264033e+001	-7.533835e-002	-3.263018e+001	-2.603851e+001	-1.189243e+002
170287250	-2.591298e+001	-1.325185e+002	-7.538295e-002	-3.311749e+001	-7.498506e-002	-3.310358e+001	-2.590394e+001	-1.192026e+002
172787063	-2.585593e+001	-1.330739e+002	-7.543825e-002	-3.360915e+001	-7.539184e-002	-3.358190e+001	-2.581442e+001	-1.197983e+002
175286875	-2.576208e+001	-1.337583e+002	-7.564811e-002	-3.408634e+001	-7.745646e-002	-3.406238e+001	-2.567399e+001	-1.201617e+002
177786688	-2.559115e+001	-1.343025e+002	-7.707203e-002	-3.455973e+001	-7.990257e-002	-3.454554e+001	-2.559198e+001	-1.209236e+002
180286500	-2.551924e+001	-1.348884e+002	-7.726336e-002	-3.503226e+001	-7.977434e-002	-3.501521e+001	-2.543224e+001	-1.209806e+002
182786313	-2.539111e+001	-1.356704e+002	-7.941134e-002	-3.551518e+001	-8.165567e-002	-3.550718e+001	-2.535148e+001	-1.213524e+002
185286125	-2.528655e+001	-1.360858e+002	-7.989104e-002	-3.599651e+001	-8.295019e-002	-3.598106e+001	-2.523939e+001	-1.218424e+002
187785938	-2.518039e+001	-1.365812e+002	-8.185833e-002	-3.646781e+001	-8.334905e-002	-3.647946e+001	-2.513336e+001	-1.220377e+002
190285750	-2.507984e+001	-1.370629e+002	-8.270191e-002	-3.696205e+001	-8.538575e-002	-3.694516e+001	-2.502832e+001	-1.227577e+002
192785563	-2.498000e+001	-1.375204e+002	-8.566265e-002	-3.742259e+001	-8.657446e-002	-3.742949e+001	-2.489535e+001	-1.230649e+002
195285375	-2.487719e+001	-1.382456e+002	-8.505933e-002	-3.790864e+001	-8.680088e-002	-3.791852e+001	-2.483861e+001	-1.238319e+002
197785188	-2.479028e+001	-1.386666e+002	-8.647371e-002	-3.837904e+001	-8.604185e-002	-3.839167e+001	-2.473997e+001	-1.239427e+002
200285000	-2.470877e+001	-1.392897e+002	-8.807133e-002	-3.886031e+001	-9.205649e-002	-3.885652e+001	-2.462164e+001	-1.244278e+002
202784813	-2.456879e+001	-1.396944e+002	-9.082852e-002	-3.934141e+001	-9.131063e-002	-3.934415e+001	-2.456080e+001	-1.248907e+002
205284625	-2.453099e+001	-1.403565e+002	-9.078821e-002	-3.982354e+001	-9.288839e-002	-3.981801e+001	-2.444676e+001	-1.255607e+002
207784438	-2.440514e+001	-1.408029e+002	-9.263483e-002	-4.028538e+001	-9.332170e-002	-4.030302e+001	-2.439319e+001	-1.257641e+002
210284250	-2.435907e+001	-1.414441e+002	-9.269775e-002	-4.077826e+001	-9.344452e-002	-4.078130e+001	-2.433456e+001	-1.260770e+002
212784063	-2.426526e+001	-1.419711e+002	-9.327373e-002	-4.123518e+001	-9.335961e-002	-4.124801e+001	-2.424157e+001	-1.265881e+002
215283875	-2.421951e+001	-1.426094e+002	-9.425073e-002	-4.174111e+001	-9.569252e-002	-4.173324e+001	-2.416434e+001	-1.268433e+002
217783688	-2.411864e+001	-1.431957e+002	-9.610426e-002	-4.220166e+001	-9.753080e-002	-4.221490e+001	-2.408083e+001	-1.272704e+002
220283500	-2.403121e+001	-1.437256e+002	-9.510523e-002	-4.268936e+001	-9.664753e-002	-4.270145e+001	-2.404556e+001	-1.276050e+002
222783313	-2.397614e+001	-1.441264e+002	-9.827249e-002	-4.316228e+001	-9.845026e-002	-4.316403e+001	-2.395454e+001	-1.279202e+002
225283125	-2.390187e+001	-1.448871e+002	-9.829178e-002	-4.363640e+001	-9.886700e-002	-4.365374e+001	-2.392190e+001	-1.283201e+002
227782938	-2.382720e+001	-1.455624e+002	-1.014310e-001	-4.410775e+001	-1.013842e-001	-4.412803e+001	-2.382159e+001	-1.285869e+002
230282750	-2.375587e+001	-1.460973e+002	-1.016073e-001	-4.459565e+001	-1.022469e-001	-4.460380e+001	-2.372385e+001	-1.290210e+002
232782563	-2.365999e+001	-1.465241e+002	-1.043447e-001	-4.507102e+001	-1.028469e-001	-4.508543e+001	-2.367100e+001	-1.293194e+002
235282375	-2.363611e+001	-1.469726e+002	-1.044731e-001	-4.555053e+001	-1.040295e-001	-4.556562e+001	-2.360659e+001	-1.296231e+002
237782188	-2.355676e+001	-1.477051e+002	-1.054901e-001	-4.603254e+001	-1.071580e-001	-4.605411e+001	-2.350915e+001	-1.299864e+002
240282000	-2.349599e+001	-1.484942e+002	-1.077236e-001	-4.651150e+001	-1.068847e-001	-4.651429e+001	-2.343167e+001	-1.303230e+002
242781813	-2.341738e+001	-1.489943e+002	-1.083692e-001	-4.698885e+001	-1.079931e-001	-4.699622e+001	-2.338414e+001	-1.307072e+002
245281625	-2.334020e+001	-1.495777e+002	-1.082710e-001	-4.745677e+001	-1.072726e-001	-4.747706e+001	-2.331464e+001	-1.311394e+002
247781438	-2.331169e+001	-1.500753e+002	-1.107318e-001	-4.794350e+001	-1.104049e-001	-4.795552e+001	-2.321432e+001	-1.313600e+002
250281250	-2.325176e+001	-1.507306e+002	-1.111276e-001	-4.841708e+001	-1.099973e-001	-4.844436e+001	-2.316491e+001	-1.318061e+002
252781063	-2.321040e+001	-1.513915e+002	-1.140811e-001	-4.890186e+001	-1.116680e-001	-4.892148e+001	-2.307332e+001	-1.320871e+002
255280875	-2.312653e+001	-1.519434e+002	-1.130836e-001	-4.937108e+001	-1.143753e-001	-4.939594e+001	-2.303335e+001	-1.325951e+002
257780688	-2.306381e+001	-1.525103e+002	-1.147510e-001	-4.985092e+001	-1.132805e-001	-4.987102e+001	-2.296777e+001	-1.328728e+002
260280500	-2.297731e+001	-1.530123e+002	-1.163542e-001	-5.032898e+001	-1.144387e-001	-5.035006e+001	-2.292926e+001	-1.333478e+002
262780313	-2.296611e+001	-1.537966e+002	-1.175899e-001	-5.081969e+001	-1.159735e-001	-5.082437e+001	-2.284166e+001	-1.337360e+002
265280125	-2.287945e+001	-1.542470e+002	-1.190688e-001	-5.130152e+001	-1.178424e-001	-5.131420e+001	-2.277761e+001	-1.341428e+002
267779938	-2.282327e+001	-1.549854e+002	-1.190211e-001	-5.177345e+001	-1.189372e-001	-5.179458e+001	-2.275179e+001	-1.342725e+002
270279750	-2.276496e+001	-1.555147e+002	-1.201112e-001	-5.224136e+001	-1.192494e-001	-5.227465e+001	-2.268095e+001	-1.347555e+002
272779563	-2.270480e+001	-1.559326e+002	-1.210415e-001	-5.273614e+001	-1.202133e-001	-5.274875e+001	-2.264244e+001	-1.352929e+002
275279375	-2.265964e+001	-1.567829e+002	-1.215505e-001	-5.320469e+001	-1.214299e-001	-5.321945e+001	-2.256187e+001	-1.355236e+002
277779188	-2.259363e+001	-1.570142e+002	-1.248051e-001	-5.370008e+001	-1.215031e-001	-5.371086e+001	-2.252319e+001	-1.360439e+002
280279000	-2.255107e+001	-1.576117e+002	-1.250408e-001	-5.417113e+001	-1.242061e-001	-5.419425e+001	-2.251529e+001	-1.362754e+002
282778813	-2.249436e+001	-1.583165e+002	-1.252831e-001	-5.465479e+001	-1.256561e-001	-5.467961e+001	-2.246691e+001	-1.365910e+002
285278625	-2.242104e+001	-1.587316e+002	-1.256003e-001	-5.513361e+001	-1.260563e-001	-5.514238e+001	-2.240371e+001	-1.370871e+002
287778438	-2.237490e+001	-1.594564e+002	-1.254311e-001	-5.560241e+001	-1.263760e-001	-5.562285e+001	-2.235955e+001	-1.375024e+002
290278250	-2.233119e+001	-1.598658e+002	-1.291824e-001	-5.608667e+001	-1.295192e-001	-5.610912e+001	-2.230917e+001	-1.375205e+002
292778063	-2.229888e+001	-1.604720e+002	-1.281382e-001	-5.656358e+001	-1.285268e-001	-5.658056e+001	-2.228958e+001	-1.380053e+002
295277875	-2.220109e+001	-1.610077e+002	-1.298227e-001	-5.703775e+001	-1.297381e-001	-5.704945e+001	-2.221547e+001	-1.385759e+002
297777688	-2.218652e+001	-1.615783e+002	-1.308964e-001	-5.751820e+001	-1.303400e-001	-5.754217e+001	-2.219372e+001	-1.388384e+002
300277500	-2.212377e+001	-1.621512e+002	-1.308968e-001	-5.799766e+001	-1.318311e-001	-5.802195e+001	-2.216182e+001	-1.391697e+002
302777313	-2.206557e+001	-1.627208e+002	-1.337429e-001	-5.847971e+001	-1.344902e-001	-5.849382e+001	-2.212785e+001	-1.395104e+002
305277125	-2.203457e+001	-1.633872e+002	-1.338456e-001	-5.894975e+001	-1.341912e-001	-5.897144e+001	-2.208824e+001	-1.397301e+002
307776938	-2.198575e+001	-1.638010e+002	-1.350695e-001	-5.943138e+001	-1.347944e-001	-5.946368e+001	-2.207052e+001	-1.403150e+002
310276750	-2.194690e+001	-1.645379e+002	-1.354842e-001	-5.990646e+001	-1.376456e-001	-5.993039e+001	-2.202201e+001	-1.404513e+002
312776563	-2.192266e+001	-1.648533e+002	-1.391544e-001	-6.038677e+001	-1.391939e-001	-6.040071e+001	-2.198514e+001	-1.407211e+002
315276375	-2.188756e+001	-1.656415e+002	-1.397450e-001	-6.086942e+001	-1.398002e-001	-6.089602e+001	-2.195856e+001	-1.412019e+002
317776188	-2.184886e+001	-1.661096e+002	-1.414305e-001	-6.133693e+001	-1.431791e-001	-6.136154e+001	-2.189979e+001	-1.414499e+002
320276000	-2.180793e+001	-1.667258e+002	-1.420083e-001	-6.180835e+001	-1.446417e-001	-6.183397e+001	-2.184044e+001	-1.418671e+002
322775813	-2.178344e+001	-1.674334e+002	-1.428310e-001	-6.227578e+001	-1.432006e-001	-6.230784e+001	-2.183042e+001	-1.421965e+002
325275625	-2.174873e+001	-1.679852e+002	-1.439625e-001	-6.275793e+001	-1.457124e-001	-6.277496e+001	-2.180478e+001	-1.425584e+002
327775438	-2.170829e+001	-1.684161e+002	-1.460781e-001	-6.323541e+001	-1.473116e-001	-6.324242e+001	-2.174513e+001	-1.431313e+002
330275250	-2.169178e+001	-1.693481e+002	-1.460175e-001	-6.370520e+001	-1.471539e-001	-6.373135e+001	-2.171287e+001	-1.434242e+002
332775063	-2.164838e+001	-1.698738e+002	-1.462868e-001	-6.418039e+001	-1.483923e-001	-6.419523e+001	-2.165866e+001	-1.439033e+002
335274875	-2.163327e+001	-1.706162e+002	-1.491553e-001	-6.466258e+001	-1.486793e-001	-6.467434e+001	-2.163764e+001	-1.443178e+002
337774688	-2.161019e+001	-1.713526e+002	-1.481391e-001	-6.514020e+001	-1.507952e-001	-6.516440e+001	-2.160329e+001	-1.446344e+002
340274500	-2.159504e+001	-1.720486e+002	-1.472779e-001	-6.561504e+001	-1.502624e-001	-6.563463e+001	-2.156152e+001	-1.451922e+002
342774313	-2.156688e+001	-1.725993e+002	-1.503246e-001	-6.609728e+001	-1.515162e-001	-6.611483e+001	-2.154447e+001	-1.455691e+002
345274125	-2.154599e+001	-1.733122e+002	-1.493222e-001	-6.656657e+001	-1.524981e-001	-6.658729e+001	-2.152275e+001	-1.460122e+002
347773938	-2.153861e+001	-1.739347e+002	-1.523174e-001	-6.706536e+001	-1.525844e-001	-6.705872e+001	-2.151326e+001	-1.462623e+002
350273750	-2.150498e+001	-1.745789e+002	-1.531256e-001	-6.753444e+001	-1.517359e-001	-6.754125e+001	-2.152357e+001	-1.466641e+002
352773563	-2.148490e+001	-1.752189e+002	-1.545433e-001	-6.800456e+001	-1.547402e-001	-6.801456e+001	-2.148952e+001	-1.471634e+002
355273375	-2.146817e+001	-1.759481e+002	-1.543650e-001	-6.848141e+001	-1.557949e-001	-6.850096e+001	-2.146091e+001	-1.474273e+002
357773188	-2.144008e+001	-1.765472e+002	-1.554555e-001	-6.896867e+001	-1.560810e-001	-6.897100e+001	-2.145078e+001	-1.479881e+002
360273000	-2.141817e+001	-1.771251e+002	-1.571488e-001	-6.944180e+001	-1.578510e-001	-6.945888e+001	-2.142577e+001	-1.481995e+002
362772813	-2.138980e+001	-1.778459e+002	-1.562300e-001	-6.991088e+001	-1.596309e-001	-6.993039e+001	-2.139510e+001	-1.486441e+002
365272625	-2.136426e+001	-1.784000e+002	-1.590580e-001	-7.039924e+001	-1.602396e-001	-7.041577e+001	-2.140689e+001	-1.488914e+002
367772438	-2.136498e+001	-1.790185e+002	-1.574790e-001	-7.087487e+001	-1.598179e-001	-7.088171e+001	-2.139802e+001	-1.492098e+002
370272250	-2.132437e+001	-1.795128e+002	-1.603343e-001	-7.133596e+001	-1.614751e-001	-7.135575e+001	-2.135284e+001	-1.495160e+002
372772063	-2.129643e+001	1.798857e+002	-1.617105e-001	-7.181632e+001	-1.606373e-001	-7.183632e+001	-2.132840e+001	-1.498473e+002
375271875	-2.127689e+001	1.793263e+002	-1.629343e-001	-7.231141e+001	-1.638266e-001	-7.230365e+001	-2.132361e+001	-1.502744e+002
