!Agilent Technologies,E5071C,MY46106184,A.09.10
!Date: Mon Jan 01 00:19:44 2001
!Data & Calibration Information:
!Freq	S11:SOLT2(ON)	S21:SOLT2(ON)	S12:SOLT2(ON)	S22:SOLT2(ON)
# Hz S dB R 50
300000	-2.509047e+001	8.125189e+001	-7.265945e-002	-3.257741e+000	-6.928741e-002	-3.314876e+000	-2.460220e+001	8.060639e+001
2799813	-4.950529e+001	1.036829e+002	1.650770e-002	-9.058523e-001	1.581266e-002	-8.512226e-001	-5.038863e+001	1.033740e+002
5299625	-5.800242e+001	-1.706510e+002	1.765842e-002	-1.282672e+000	1.965981e-002	-1.225651e+000	-6.206406e+001	1.769288e+002
7799438	-5.624532e+001	-1.403220e+002	9.603003e-003	-1.705639e+000	1.499131e-002	-1.728650e+000	-5.491609e+001	-1.317845e+002
10299250	-4.669591e+001	-1.183726e+002	-3.338286e-003	-2.406938e+000	-9.936475e-003	-2.452680e+000	-4.754527e+001	-1.096400e+002
12799063	-4.463521e+001	-1.117037e+002	-3.770453e-004	-2.937809e+000	-1.064267e-002	-2.979065e+000	-4.572718e+001	-1.038423e+002
15298875	-4.495564e+001	-1.077207e+002	4.137586e-003	-3.325726e+000	-9.570579e-004	-3.377195e+000	-4.609258e+001	-1.026211e+002
17798688	-4.520734e+001	-1.059386e+002	6.947389e-004	-3.677563e+000	-2.459165e-003	-3.703116e+000	-4.564351e+001	-1.014609e+002
20298500	-4.427765e+001	-1.076878e+002	-4.157316e-003	-4.023940e+000	-1.452804e-003	-4.048984e+000	-4.496271e+001	-9.700811e+001
22798313	-4.312670e+001	-1.049538e+002	-4.744593e-003	-4.498752e+000	-2.716527e-003	-4.499006e+000	-4.308803e+001	-9.811941e+001
25298125	-4.187199e+001	-1.038154e+002	-6.065792e-003	-4.988800e+000	-3.195267e-003	-4.981993e+000	-4.256185e+001	-9.674824e+001
27797938	-4.123197e+001	-1.034867e+002	-5.042588e-003	-5.479001e+000	-6.047755e-003	-5.494554e+000	-4.133564e+001	-9.408868e+001
30297750	-4.048500e+001	-1.017046e+002	-8.063949e-003	-5.989432e+000	-8.398535e-003	-5.985740e+000	-4.055757e+001	-9.559063e+001
32797563	-3.978485e+001	-1.017759e+002	-7.919006e-003	-6.484391e+000	-6.027223e-003	-6.482494e+000	-3.989509e+001	-9.611554e+001
35297375	-3.919867e+001	-1.044198e+002	-9.052358e-003	-6.970074e+000	-6.962921e-003	-6.975753e+000	-3.911343e+001	-9.588758e+001
37797188	-3.844172e+001	-1.047123e+002	-9.434473e-003	-7.466225e+000	-9.407313e-003	-7.467583e+000	-3.817758e+001	-9.596360e+001
40297000	-3.771698e+001	-1.062796e+002	-1.032380e-002	-7.933064e+000	-9.964350e-003	-7.957621e+000	-3.764226e+001	-9.619714e+001
42796813	-3.723099e+001	-1.056160e+002	-1.113006e-002	-8.434398e+000	-1.135613e-002	-8.427982e+000	-3.701666e+001	-9.831723e+001
45296625	-3.682189e+001	-1.065455e+002	-1.001694e-002	-8.952570e+000	-1.276361e-002	-8.929721e+000	-3.650951e+001	-9.916541e+001
47796438	-3.621701e+001	-1.060986e+002	-1.319370e-002	-9.440791e+000	-1.484012e-002	-9.421646e+000	-3.589753e+001	-9.888807e+001
50296250	-3.575659e+001	-1.070608e+002	-1.358626e-002	-9.939900e+000	-1.649339e-002	-9.896098e+000	-3.542180e+001	-1.005388e+002
52796063	-3.540793e+001	-1.078317e+002	-1.657396e-002	-1.042190e+001	-1.843724e-002	-1.038986e+001	-3.507498e+001	-1.003553e+002
55295875	-3.490318e+001	-1.081112e+002	-1.682752e-002	-1.089807e+001	-1.863198e-002	-1.087183e+001	-3.462853e+001	-1.009616e+002
57795688	-3.453610e+001	-1.090463e+002	-2.226811e-002	-1.137811e+001	-1.964773e-002	-1.135850e+001	-3.425727e+001	-1.016180e+002
60295500	-3.410363e+001	-1.105290e+002	-2.132339e-002	-1.184400e+001	-1.994429e-002	-1.185447e+001	-3.404348e+001	-1.015038e+002
62795313	-3.384610e+001	-1.101921e+002	-2.222514e-002	-1.235283e+001	-2.270763e-002	-1.233588e+001	-3.366669e+001	-1.027388e+002
65295125	-3.345079e+001	-1.110724e+002	-2.379843e-002	-1.283745e+001	-2.623925e-002	-1.282424e+001	-3.335511e+001	-1.020723e+002
67794938	-3.315601e+001	-1.114442e+002	-2.468876e-002	-1.331470e+001	-2.631224e-002	-1.331505e+001	-3.313763e+001	-1.031611e+002
70294750	-3.292253e+001	-1.123062e+002	-2.662090e-002	-1.380031e+001	-2.679572e-002	-1.379069e+001	-3.280984e+001	-1.040222e+002
72794563	-3.259154e+001	-1.129386e+002	-2.778085e-002	-1.426784e+001	-2.895872e-002	-1.427385e+001	-3.259793e+001	-1.040163e+002
75294375	-3.242060e+001	-1.131103e+002	-2.887829e-002	-1.475855e+001	-2.874785e-002	-1.477817e+001	-3.229000e+001	-1.052326e+002
77794188	-3.207394e+001	-1.134352e+002	-3.146075e-002	-1.523265e+001	-2.865721e-002	-1.525497e+001	-3.198127e+001	-1.053233e+002
80294000	-3.189591e+001	-1.139622e+002	-3.218663e-002	-1.573091e+001	-3.019232e-002	-1.576479e+001	-3.180049e+001	-1.054434e+002
82793813	-3.153798e+001	-1.143298e+002	-3.313501e-002	-1.621179e+001	-3.022489e-002	-1.626347e+001	-3.153936e+001	-1.065784e+002
85293625	-3.133389e+001	-1.148552e+002	-3.456013e-002	-1.669609e+001	-3.371632e-002	-1.674444e+001	-3.132104e+001	-1.070689e+002
87793438	-3.097225e+001	-1.148309e+002	-3.584218e-002	-1.719078e+001	-3.213419e-002	-1.721437e+001	-3.106792e+001	-1.074602e+002
90293250	-3.072131e+001	-1.149331e+002	-3.635636e-002	-1.766722e+001	-3.544840e-002	-1.771149e+001	-3.088735e+001	-1.076244e+002
92793063	-3.060063e+001	-1.159708e+002	-3.699799e-002	-1.816336e+001	-3.537661e-002	-1.819944e+001	-3.063357e+001	-1.074128e+002
95292875	-3.046828e+001	-1.156636e+002	-3.628909e-002	-1.865199e+001	-3.602604e-002	-1.867775e+001	-3.050922e+001	-1.077065e+002
97792688	-3.029642e+001	-1.166454e+002	-3.661633e-002	-1.914376e+001	-3.673243e-002	-1.914953e+001	-3.024860e+001	-1.083134e+002
100292500	-3.010470e+001	-1.165965e+002	-4.133477e-002	-1.964015e+001	-3.966584e-002	-1.962804e+001	-3.013306e+001	-1.086126e+002
102792313	-2.988179e+001	-1.172897e+002	-4.334846e-002	-2.011157e+001	-4.358205e-002	-2.011152e+001	-2.987583e+001	-1.089140e+002
105292125	-2.967522e+001	-1.178403e+002	-4.469794e-002	-2.059229e+001	-4.627092e-002	-2.059768e+001	-2.970274e+001	-1.090909e+002
107791938	-2.945188e+001	-1.186039e+002	-4.977097e-002	-2.108064e+001	-4.786392e-002	-2.107516e+001	-2.944649e+001	-1.094046e+002
110291750	-2.932486e+001	-1.191351e+002	-4.903184e-002	-2.156825e+001	-4.884817e-002	-2.154135e+001	-2.922499e+001	-1.102287e+002
112791563	-2.915733e+001	-1.195491e+002	-5.199711e-002	-2.205347e+001	-5.116738e-002	-2.203699e+001	-2.905212e+001	-1.099676e+002
115291375	-2.899025e+001	-1.201513e+002	-5.326380e-002	-2.253144e+001	-5.305866e-002	-2.252226e+001	-2.888108e+001	-1.107857e+002
117791188	-2.875741e+001	-1.206145e+002	-5.332875e-002	-2.301232e+001	-5.645005e-002	-2.299594e+001	-2.869347e+001	-1.109281e+002
120291000	-2.860740e+001	-1.211082e+002	-5.519182e-002	-2.349310e+001	-5.494798e-002	-2.348957e+001	-2.856963e+001	-1.114758e+002
122790813	-2.849658e+001	-1.216024e+002	-5.626801e-002	-2.398902e+001	-5.677464e-002	-2.396690e+001	-2.839837e+001	-1.119192e+002
125290625	-2.834592e+001	-1.221670e+002	-5.682351e-002	-2.447205e+001	-5.649634e-002	-2.444063e+001	-2.825908e+001	-1.123271e+002
127790438	-2.816715e+001	-1.229884e+002	-5.738025e-002	-2.494461e+001	-5.724287e-002	-2.492200e+001	-2.804542e+001	-1.129287e+002
130290250	-2.799370e+001	-1.233768e+002	-5.937254e-002	-2.542623e+001	-5.721946e-002	-2.540656e+001	-2.792282e+001	-1.135620e+002
132790063	-2.784073e+001	-1.238374e+002	-5.926212e-002	-2.591362e+001	-5.778560e-002	-2.589211e+001	-2.771964e+001	-1.135962e+002
135289875	-2.773592e+001	-1.244222e+002	-6.017929e-002	-2.640577e+001	-5.916557e-002	-2.636967e+001	-2.765032e+001	-1.139381e+002
137789688	-2.758991e+001	-1.254427e+002	-5.950877e-002	-2.687385e+001	-6.026932e-002	-2.684513e+001	-2.748265e+001	-1.146605e+002
140289500	-2.744858e+001	-1.255970e+002	-6.043042e-002	-2.735121e+001	-6.102664e-002	-2.733833e+001	-2.735779e+001	-1.148320e+002
142789313	-2.727757e+001	-1.264195e+002	-5.984311e-002	-2.783537e+001	-6.153101e-002	-2.781168e+001	-2.722619e+001	-1.154654e+002
145289125	-2.715636e+001	-1.267527e+002	-6.115362e-002	-2.832417e+001	-6.190164e-002	-2.829229e+001	-2.707857e+001	-1.159118e+002
147788938	-2.696454e+001	-1.274184e+002	-6.122136e-002	-2.880718e+001	-6.182828e-002	-2.877894e+001	-2.699086e+001	-1.163319e+002
150288750	-2.690722e+001	-1.280432e+002	-6.402650e-002	-2.929181e+001	-6.287030e-002	-2.925402e+001	-2.687602e+001	-1.166129e+002
152788563	-2.672998e+001	-1.285808e+002	-6.528070e-002	-2.977123e+001	-6.408723e-002	-2.973353e+001	-2.671807e+001	-1.166952e+002
155288375	-2.660167e+001	-1.291673e+002	-6.521713e-002	-3.024216e+001	-6.502358e-002	-3.021574e+001	-2.660798e+001	-1.171510e+002
157788188	-2.652421e+001	-1.298373e+002	-6.791493e-002	-3.072408e+001	-6.730831e-002	-3.069557e+001	-2.647441e+001	-1.176235e+002
160288000	-2.638014e+001	-1.303087e+002	-6.808106e-002	-3.120408e+001	-6.849484e-002	-3.119278e+001	-2.638165e+001	-1.177947e+002
162787813	-2.626672e+001	-1.308147e+002	-6.987018e-002	-3.169739e+001	-7.189124e-002	-3.165790e+001	-2.623531e+001	-1.184437e+002
165287625	-2.615982e+001	-1.313071e+002	-7.090820e-002	-3.216805e+001	-7.240707e-002	-3.214167e+001	-2.611389e+001	-1.188121e+002
167787438	-2.604579e+001	-1.321283e+002	-7.205234e-002	-3.263972e+001	-7.349595e-002	-3.262470e+001	-2.601426e+001	-1.189920e+002
170287250	-2.588337e+001	-1.326038e+002	-7.599735e-002	-3.312288e+001	-7.431518e-002	-3.310787e+001	-2.587843e+001	-1.190897e+002
172787063	-2.581454e+001	-1.331113e+002	-7.600616e-002	-3.361797e+001	-7.562412e-002	-3.358837e+001	-2.579710e+001	-1.198216e+002
175286875	-2.573290e+001	-1.336741e+002	-7.563861e-002	-3.408681e+001	-7.638741e-002	-3.407045e+001	-2.565318e+001	-1.201941e+002
177786688	-2.557370e+001	-1.343305e+002	-7.540819e-002	-3.455941e+001	-7.813637e-002	-3.455620e+001	-2.557517e+001	-1.208312e+002
180286500	-2.549626e+001	-1.348748e+002	-7.835853e-002	-3.504062e+001	-8.045790e-002	-3.501599e+001	-2.542253e+001	-1.210615e+002
182786313	-2.534783e+001	-1.356163e+002	-7.994223e-002	-3.551288e+001	-8.115665e-002	-3.551074e+001	-2.534439e+001	-1.212917e+002
185286125	-2.529528e+001	-1.360551e+002	-8.035130e-002	-3.599618e+001	-8.346610e-002	-3.597195e+001	-2.521728e+001	-1.220970e+002
187785938	-2.515998e+001	-1.366141e+002	-8.096580e-002	-3.647825e+001	-8.422847e-002	-3.648734e+001	-2.512334e+001	-1.221010e+002
190285750	-2.506642e+001	-1.369889e+002	-8.299564e-002	-3.696178e+001	-8.524935e-002	-3.694721e+001	-2.501492e+001	-1.228432e+002
192785563	-2.498027e+001	-1.374890e+002	-8.466946e-002	-3.743149e+001	-8.688163e-002	-3.743215e+001	-2.489573e+001	-1.232004e+002
195285375	-2.487623e+001	-1.382710e+002	-8.389684e-002	-3.791510e+001	-8.583302e-002	-3.791237e+001	-2.484699e+001	-1.237979e+002
197785188	-2.478953e+001	-1.385743e+002	-8.600811e-002	-3.838360e+001	-8.739471e-002	-3.839746e+001	-2.473621e+001	-1.239099e+002
200285000	-2.471889e+001	-1.392598e+002	-8.764259e-002	-3.886759e+001	-9.050016e-002	-3.885789e+001	-2.463254e+001	-1.243621e+002
202784813	-2.457243e+001	-1.396777e+002	-8.971642e-002	-3.934541e+001	-9.136037e-002	-3.934188e+001	-2.457737e+001	-1.248460e+002
205284625	-2.453811e+001	-1.403340e+002	-9.009569e-002	-3.983009e+001	-9.140889e-002	-3.981144e+001	-2.445127e+001	-1.256267e+002
207784438	-2.441243e+001	-1.408169e+002	-9.122876e-002	-4.028913e+001	-9.325153e-002	-4.030336e+001	-2.440842e+001	-1.256372e+002
210284250	-2.438086e+001	-1.414460e+002	-9.216652e-002	-4.077910e+001	-9.340752e-002	-4.078262e+001	-2.435026e+001	-1.259874e+002
212784063	-2.425496e+001	-1.420049e+002	-9.355811e-002	-4.123630e+001	-9.418006e-002	-4.124450e+001	-2.424091e+001	-1.265164e+002
215283875	-2.422201e+001	-1.425725e+002	-9.349018e-002	-4.174490e+001	-9.590408e-002	-4.173553e+001	-2.413707e+001	-1.268263e+002
217783688	-2.413266e+001	-1.432376e+002	-9.485893e-002	-4.220894e+001	-9.767161e-002	-4.221230e+001	-2.405672e+001	-1.273483e+002
220283500	-2.404479e+001	-1.437280e+002	-9.564782e-002	-4.270023e+001	-9.692386e-002	-4.270282e+001	-2.402494e+001	-1.276216e+002
222783313	-2.398041e+001	-1.440927e+002	-9.918280e-002	-4.317335e+001	-9.843711e-002	-4.317169e+001	-2.394740e+001	-1.278404e+002
225283125	-2.390447e+001	-1.448830e+002	-1.001174e-001	-4.364637e+001	-9.967971e-002	-4.365474e+001	-2.390713e+001	-1.282841e+002
227782938	-2.381785e+001	-1.455013e+002	-1.008882e-001	-4.411556e+001	-1.003749e-001	-4.412814e+001	-2.381314e+001	-1.285190e+002
230282750	-2.375464e+001	-1.459909e+002	-1.022025e-001	-4.459441e+001	-1.015700e-001	-4.460629e+001	-2.371424e+001	-1.290171e+002
232782563	-2.364152e+001	-1.465833e+002	-1.047660e-001	-4.508219e+001	-1.025459e-001	-4.508641e+001	-2.363847e+001	-1.293887e+002
235282375	-2.362457e+001	-1.470922e+002	-1.044173e-001	-4.555826e+001	-1.045429e-001	-4.557768e+001	-2.359505e+001	-1.296483e+002
237782188	-2.353269e+001	-1.476644e+002	-1.059667e-001	-4.602480e+001	-1.071641e-001	-4.605274e+001	-2.350406e+001	-1.298922e+002
240282000	-2.347933e+001	-1.483417e+002	-1.067894e-001	-4.651465e+001	-1.070791e-001	-4.652130e+001	-2.343506e+001	-1.303455e+002
242781813	-2.340703e+001	-1.489609e+002	-1.077847e-001	-4.698929e+001	-1.070285e-001	-4.700193e+001	-2.337286e+001	-1.307492e+002
245281625	-2.334082e+001	-1.495396e+002	-1.086944e-001	-4.746405e+001	-1.086954e-001	-4.747547e+001	-2.331137e+001	-1.311981e+002
247781438	-2.329422e+001	-1.500706e+002	-1.088975e-001	-4.794319e+001	-1.083677e-001	-4.795080e+001	-2.321865e+001	-1.313659e+002
250281250	-2.323390e+001	-1.508016e+002	-1.113496e-001	-4.842951e+001	-1.093126e-001	-4.844243e+001	-2.315129e+001	-1.318351e+002
252781063	-2.317986e+001	-1.513415e+002	-1.131141e-001	-4.890738e+001	-1.114060e-001	-4.892264e+001	-2.307726e+001	-1.321488e+002
255280875	-2.311747e+001	-1.519033e+002	-1.137665e-001	-4.937180e+001	-1.135137e-001	-4.939710e+001	-2.302789e+001	-1.325912e+002
257780688	-2.304247e+001	-1.525003e+002	-1.154978e-001	-4.986267e+001	-1.133287e-001	-4.987687e+001	-2.297957e+001	-1.329031e+002
260280500	-2.296781e+001	-1.529786e+002	-1.170065e-001	-5.032821e+001	-1.148803e-001	-5.035335e+001	-2.292090e+001	-1.333147e+002
262780313	-2.294964e+001	-1.536899e+002	-1.171052e-001	-5.082452e+001	-1.154450e-001	-5.082963e+001	-2.284656e+001	-1.337464e+002
265280125	-2.286204e+001	-1.542661e+002	-1.187567e-001	-5.130148e+001	-1.176656e-001	-5.131665e+001	-2.278272e+001	-1.341408e+002
267779938	-2.280665e+001	-1.549046e+002	-1.184856e-001	-5.176946e+001	-1.210812e-001	-5.180047e+001	-2.274415e+001	-1.343211e+002
270279750	-2.273126e+001	-1.554002e+002	-1.194111e-001	-5.224856e+001	-1.204283e-001	-5.227535e+001	-2.267081e+001	-1.348567e+002
272779563	-2.268110e+001	-1.559194e+002	-1.208358e-001	-5.273808e+001	-1.214639e-001	-5.275104e+001	-2.265072e+001	-1.353994e+002
275279375	-2.263651e+001	-1.568075e+002	-1.211937e-001	-5.321478e+001	-1.207022e-001	-5.323066e+001	-2.256576e+001	-1.355868e+002
277779188	-2.255339e+001	-1.569006e+002	-1.250821e-001	-5.369938e+001	-1.216719e-001	-5.371908e+001	-2.253038e+001	-1.361099e+002
280279000	-2.252193e+001	-1.575760e+002	-1.250532e-001	-5.417212e+001	-1.238811e-001	-5.420181e+001	-2.250555e+001	-1.363015e+002
282778813	-2.246345e+001	-1.582458e+002	-1.248416e-001	-5.465880e+001	-1.259297e-001	-5.467434e+001	-2.247262e+001	-1.365804e+002
285278625	-2.239842e+001	-1.587085e+002	-1.257765e-001	-5.513670e+001	-1.259170e-001	-5.514723e+001	-2.240424e+001	-1.371029e+002
287778438	-2.234631e+001	-1.594420e+002	-1.254780e-001	-5.561276e+001	-1.258782e-001	-5.562905e+001	-2.236248e+001	-1.374492e+002
290278250	-2.230860e+001	-1.597649e+002	-1.282486e-001	-5.608609e+001	-1.287872e-001	-5.611737e+001	-2.229888e+001	-1.375905e+002
292778063	-2.227084e+001	-1.604105e+002	-1.291551e-001	-5.656090e+001	-1.274159e-001	-5.659240e+001	-2.229797e+001	-1.380123e+002
295277875	-2.218520e+001	-1.609292e+002	-1.301560e-001	-5.704569e+001	-1.304897e-001	-5.705775e+001	-2.221595e+001	-1.385617e+002
297777688	-2.216670e+001	-1.615773e+002	-1.317592e-001	-5.751891e+001	-1.306247e-001	-5.753615e+001	-2.219560e+001	-1.388757e+002
300277500	-2.209660e+001	-1.621351e+002	-1.300691e-001	-5.800162e+001	-1.321132e-001	-5.802094e+001	-2.214961e+001	-1.391153e+002
302777313	-2.204904e+001	-1.627445e+002	-1.329065e-001	-5.848561e+001	-1.343337e-001	-5.850144e+001	-2.211339e+001	-1.395149e+002
305277125	-2.203181e+001	-1.633975e+002	-1.348826e-001	-5.896303e+001	-1.344498e-001	-5.898163e+001	-2.208293e+001	-1.397309e+002
307776938	-2.197012e+001	-1.638077e+002	-1.346170e-001	-5.943650e+001	-1.356747e-001	-5.945899e+001	-2.208331e+001	-1.403960e+002
310276750	-2.194133e+001	-1.644626e+002	-1.361753e-001	-5.991428e+001	-1.392045e-001	-5.993174e+001	-2.201651e+001	-1.404699e+002
312776563	-2.191052e+001	-1.649496e+002	-1.381980e-001	-6.039580e+001	-1.393098e-001	-6.040164e+001	-2.198072e+001	-1.407245e+002
315276375	-2.187010e+001	-1.656562e+002	-1.393557e-001	-6.085869e+001	-1.410411e-001	-6.088649e+001	-2.194482e+001	-1.412573e+002
317776188	-2.182303e+001	-1.662106e+002	-1.401934e-001	-6.133876e+001	-1.421047e-001	-6.136844e+001	-2.189637e+001	-1.415059e+002
320276000	-2.179715e+001	-1.668609e+002	-1.406976e-001	-6.180936e+001	-1.436504e-001	-6.183258e+001	-2.183610e+001	-1.419556e+002
322775813	-2.176426e+001	-1.675523e+002	-1.421662e-001	-6.228461e+001	-1.441207e-001	-6.230207e+001	-2.182449e+001	-1.422813e+002
325275625	-2.174054e+001	-1.680107e+002	-1.447188e-001	-6.276496e+001	-1.447981e-001	-6.277813e+001	-2.181197e+001	-1.426931e+002
327775438	-2.170222e+001	-1.685711e+002	-1.437418e-001	-6.323803e+001	-1.450764e-001	-6.324858e+001	-2.173977e+001	-1.431640e+002
330275250	-2.167211e+001	-1.694699e+002	-1.451895e-001	-6.371470e+001	-1.472775e-001	-6.373211e+001	-2.170386e+001	-1.435067e+002
332775063	-2.164317e+001	-1.700259e+002	-1.459250e-001	-6.418947e+001	-1.472627e-001	-6.419967e+001	-2.165367e+001	-1.438654e+002
335274875	-2.162451e+001	-1.706842e+002	-1.467571e-001	-6.466868e+001	-1.482706e-001	-6.468080e+001	-2.162913e+001	-1.443408e+002
337774688	-2.161576e+001	-1.714155e+002	-1.477918e-001	-6.515223e+001	-1.501243e-001	-6.516266e+001	-2.158879e+001	-1.446844e+002
340274500	-2.158947e+001	-1.721419e+002	-1.473836e-001	-6.563025e+001	-1.506192e-001	-6.564413e+001	-2.155843e+001	-1.451325e+002
342774313	-2.156246e+001	-1.726685e+002	-1.493566e-001	-6.611069e+001	-1.515324e-001	-6.611738e+001	-2.154337e+001	-1.456095e+002
345274125	-2.153763e+001	-1.733199e+002	-1.501195e-001	-6.657158e+001	-1.537784e-001	-6.659531e+001	-2.152059e+001	-1.460021e+002
347773938	-2.153018e+001	-1.739471e+002	-1.515150e-001	-6.706329e+001	-1.526387e-001	-6.706714e+001	-2.150622e+001	-1.462402e+002
350273750	-2.150004e+001	-1.746970e+002	-1.534469e-001	-6.753859e+001	-1.526826e-001	-6.754986e+001	-2.151842e+001	-1.466774e+002
352773563	-2.148160e+001	-1.752316e+002	-1.542228e-001	-6.801768e+001	-1.538193e-001	-6.801717e+001	-2.148878e+001	-1.471079e+002
355273375	-2.146086e+001	-1.760178e+002	-1.546297e-001	-6.849550e+001	-1.563664e-001	-6.850385e+001	-2.145231e+001	-1.473709e+002
357773188	-2.142935e+001	-1.766324e+002	-1.557667e-001	-6.897727e+001	-1.571935e-001	-6.897895e+001	-2.143477e+001	-1.479927e+002
360273000	-2.140855e+001	-1.772010e+002	-1.564780e-001	-6.944053e+001	-1.579042e-001	-6.946893e+001	-2.140711e+001	-1.482083e+002
362772813	-2.137333e+001	-1.778517e+002	-1.563262e-001	-6.992315e+001	-1.585000e-001	-6.993514e+001	-2.138093e+001	-1.486200e+002
365272625	-2.136067e+001	-1.784511e+002	-1.581923e-001	-7.040387e+001	-1.599522e-001	-7.041246e+001	-2.138366e+001	-1.488642e+002
367772438	-2.134646e+001	-1.790964e+002	-1.566033e-001	-7.088189e+001	-1.589262e-001	-7.088971e+001	-2.137679e+001	-1.492906e+002
370272250	-2.131747e+001	-1.796434e+002	-1.589911e-001	-7.135807e+001	-1.613838e-001	-7.136720e+001	-2.134719e+001	-1.495984e+002
372772063	-2.128767e+001	1.797959e+002	-1.598715e-001	-7.183443e+001	-1.612197e-001	-7.184429e+001	-2.131852e+001	-1.499039e+002
375271875	-2.127308e+001	1.792271e+002	-1.618306e-001	-7.232217e+001	-1.631899e-001	-7.232097e+001	-2.130531e+001	-1.502589e+002
