!Agilent Technologies,N5230C,MY48100348,A.08.04.10
!Agilent N5230C: A.08.04.10
!Date: Saturday, November 08, 2025 09:29:41
!Correction: S11(Off) 
!S21(Off) 
!S12(Off) 
!S22(Off) 
!S2P File: Measurements: S11, S21, S12, S22:
# Hz S  dB   R 50
300000 -2.000000e+002 4.500000e+001 -7.182553e+001 -1.445073e+002 -7.421542e+001 1.729788e+002 -2.998949e-002 -4.190839e+000
10682529.653775 -2.000000e+002 4.500000e+001 -8.080465e+001 6.538513e+001 -8.536023e+001 -5.246719e+001 -4.557489e-004 -2.997307e+001
21065059.307549 -2.000000e+002 4.500000e+001 -8.754094e+001 -8.816023e+001 -8.276362e+001 -6.070277e+001 -1.587121e-003 -5.961121e+001
31447588.961324 -2.000000e+002 4.500000e+001 -1.071633e+002 -1.857564e+001 -9.113810e+001 -4.752370e+001 -7.760929e-002 -8.867955e+001
41830118.615099 -2.000000e+002 4.500000e+001 -8.426508e+001 -7.276847e+001 -8.163422e+001 -3.882286e+001 -1.906954e-001 -1.168992e+002
52212648.268873 -2.000000e+002 4.500000e+001 -8.171282e+001 -2.678916e+001 -8.357097e+001 8.921768e+001 -2.757623e-001 -1.447410e+002
62595177.922648 -2.000000e+002 4.500000e+001 -8.584964e+001 -1.590375e+002 -8.701733e+001 2.637357e+001 -3.195857e-001 -1.723251e+002
72977707.576423 -2.000000e+002 4.500000e+001 -8.721804e+001 -5.546403e+001 -7.637859e+001 8.419745e+001 -3.408425e-001 1.597933e+002
83360237.230197 -2.000000e+002 4.500000e+001 -8.191883e+001 -5.663508e+001 -8.455914e+001 -3.976709e+000 -4.046941e-001 1.314372e+002
93742766.883972 -2.000000e+002 4.500000e+001 -8.996703e+001 -1.783252e+002 -8.125308e+001 -1.737094e+002 -4.714076e-001 1.026928e+002
104125296.53775 -2.000000e+002 4.500000e+001 -8.547710e+001 1.664089e+002 -9.081389e+001 -9.980939e+001 -5.044498e-001 7.395902e+001
114507826.19152 -2.000000e+002 4.500000e+001 -8.750394e+001 1.611292e+002 -8.695100e+001 5.920732e+001 -3.923592e-001 4.531431e+001
124890355.8453 -2.000000e+002 4.500000e+001 -8.460645e+001 -1.598609e+002 -7.615609e+001 7.453399e+001 1.862065e-002 1.506470e+001
135272885.49907 -2.000000e+002 4.500000e+001 -9.391881e+001 -5.793877e+001 -8.094362e+001 -7.893404e+000 -5.141284e-002 -1.940254e+001
145655415.15285 -2.000000e+002 4.500000e+001 -9.052253e+001 1.330974e+002 -7.344410e+001 8.098277e+001 -4.277674e-001 -4.932973e+001
156037944.80662 -2.000000e+002 4.500000e+001 -9.067551e+001 -6.792911e+001 -9.774609e+001 -6.941662e+001 -7.210140e-001 -7.793271e+001
166420474.46039 -2.000000e+002 4.500000e+001 -8.368205e+001 -5.714437e+000 -7.651955e+001 -3.601931e+000 -1.153868e+000 -1.040737e+002
176803004.11417 -2.000000e+002 4.500000e+001 -8.170905e+001 -2.710895e+001 -8.565075e+001 1.394805e+002 -8.960114e-001 -1.288802e+002
187185533.76794 -2.000000e+002 4.500000e+001 -8.397050e+001 5.327964e+000 -7.745331e+001 -3.788725e+001 -5.495753e-001 -1.567355e+002
197568063.42172 -2.000000e+002 4.500000e+001 -8.251445e+001 -7.957990e+001 -7.865405e+001 -4.042482e+001 -4.369760e-001 1.749609e+002
207950593.07549 -2.000000e+002 4.500000e+001 -8.047182e+001 -1.477160e+002 -9.567001e+001 -1.461845e+002 -3.792513e-001 1.461271e+002
218333122.72927 -2.000000e+002 4.500000e+001 -8.076551e+001 -1.293646e+002 -8.151190e+001 -8.426596e+001 -3.711597e-001 1.168442e+002
228715652.38304 -2.000000e+002 4.500000e+001 -7.551912e+001 1.489397e+002 -7.659482e+001 -1.590405e+002 -4.342402e-001 8.761510e+001
239098182.03682 -2.000000e+002 4.500000e+001 -7.663148e+001 -1.661308e+002 -7.923296e+001 1.181416e+002 -5.114882e-001 5.832023e+001
249480711.69059 -2.000000e+002 4.500000e+001 -8.570291e+001 5.679337e+001 -8.299544e+001 1.538391e+002 -5.469363e-001 2.901724e+001
259863241.34437 -2.000000e+002 4.500000e+001 -8.600301e+001 3.567095e+000 -7.954515e+001 9.858358e+001 -4.945263e-001 -3.789866e-001
270245770.99814 -2.000000e+002 4.500000e+001 -8.438837e+001 7.787038e+001 -8.794389e+001 -3.875564e+001 -3.890525e-001 -3.008023e+001
280628300.65192 -2.000000e+002 4.500000e+001 -7.911675e+001 -2.716759e+001 -8.260596e+001 5.133704e+001 -2.549842e-001 -6.031207e+001
291010830.30569 -2.000000e+002 4.500000e+001 -8.409288e+001 1.165055e+002 -8.475526e+001 -6.600136e+001 -2.110112e-001 -9.079913e+001
301393359.95947 -2.000000e+002 4.500000e+001 -7.356388e+001 -1.628499e+002 -8.145358e+001 -1.733357e+002 -3.761490e-001 -1.204410e+002
311775889.61324 -2.000000e+002 4.500000e+001 -7.502197e+001 -1.725355e+002 -7.818138e+001 1.399398e+002 -5.794070e-001 -1.490050e+002
322158419.26701 -2.000000e+002 4.500000e+001 -7.881515e+001 1.043819e+002 -7.877364e+001 1.304718e+002 -7.166194e-001 -1.767287e+002
332540948.92079 -2.000000e+002 4.500000e+001 -7.286460e+001 8.236635e+001 -7.484083e+001 6.729784e+001 -7.656247e-001 1.558672e+002
342923478.57456 -2.000000e+002 4.500000e+001 -7.558247e+001 5.896522e+000 -7.347125e+001 3.096426e+001 -7.781847e-001 1.281795e+002
353306008.22834 -2.000000e+002 4.500000e+001 -7.797352e+001 1.669874e+000 -7.212984e+001 2.503519e+001 -6.904767e-001 9.950233e+001
363688537.88211 -2.000000e+002 4.500000e+001 -7.329034e+001 -1.837914e+001 -7.061256e+001 -3.479618e+001 -5.585976e-001 6.957005e+001
374071067.53589 -2.000000e+002 4.500000e+001 -6.996021e+001 -3.652841e+001 -7.172146e+001 -3.690314e+001 -5.299485e-001 3.913578e+001
384453597.18966 -2.000000e+002 4.500000e+001 -6.897555e+001 -9.369852e+001 -6.715914e+001 -8.219071e+001 -5.614781e-001 8.452131e+000
394836126.84344 -2.000000e+002 4.500000e+001 -6.857243e+001 -1.184888e+002 -7.047111e+001 -1.324283e+002 -6.107690e-001 -2.191116e+001
405218656.49721 -2.000000e+002 4.500000e+001 -6.646183e+001 -1.399499e+002 -6.509501e+001 -1.221955e+002 -6.665764e-001 -5.133286e+001
415601186.15099 -2.000000e+002 4.500000e+001 -6.404890e+001 -1.725299e+002 -6.580808e+001 -1.636466e+002 -7.081529e-001 -7.993590e+001
425983715.80476 -2.000000e+002 4.500000e+001 -6.334507e+001 1.542497e+002 -6.279895e+001 1.685277e+002 -7.010720e-001 -1.079512e+002
436366245.45854 -2.000000e+002 4.500000e+001 -6.252879e+001 1.310417e+002 -6.143073e+001 1.418220e+002 -6.414581e-001 -1.357785e+002
446748775.11231 -2.000000e+002 4.500000e+001 -6.018119e+001 1.073863e+002 -6.001021e+001 1.083620e+002 -5.601000e-001 -1.639708e+002
457131304.76609 -2.000000e+002 4.500000e+001 -5.874192e+001 7.096784e+001 -5.829115e+001 8.198478e+001 -5.132321e-001 1.670538e+002
467513834.41986 -2.000000e+002 4.500000e+001 -5.665424e+001 4.297795e+001 -5.678430e+001 4.941326e+001 -5.424029e-001 1.373328e+002
477896364.07363 -2.000000e+002 4.500000e+001 -5.506876e+001 1.388489e+001 -5.516255e+001 1.423727e+001 -6.514693e-001 1.071427e+002
488278893.72741 -2.000000e+002 4.500000e+001 -5.423331e+001 -1.464102e+001 -5.340997e+001 -1.345476e+001 -7.618347e-001 7.669361e+001
498661423.38118 -2.000000e+002 4.500000e+001 -5.260540e+001 -4.670833e+001 -5.184377e+001 -4.603741e+001 -8.169733e-001 4.595802e+001
509043953.03496 -2.000000e+002 4.500000e+001 -5.069100e+001 -7.612932e+001 -5.069919e+001 -7.373272e+001 -7.894579e-001 1.493638e+001
519426482.68873 -2.000000e+002 4.500000e+001 -4.873970e+001 -1.069340e+002 -4.894015e+001 -1.051600e+002 -6.932061e-001 -1.655199e+001
529809012.34251 -2.000000e+002 4.500000e+001 -4.750688e+001 -1.394262e+002 -4.770293e+001 -1.376607e+002 -6.298678e-001 -4.824515e+001
540191541.99628 -2.000000e+002 4.500000e+001 -4.603516e+001 -1.708995e+002 -4.605140e+001 -1.674983e+002 -6.688445e-001 -7.950806e+001
550574071.65006 -2.000000e+002 4.500000e+001 -4.458881e+001 1.583919e+002 -4.456441e+001 1.601746e+002 -7.903897e-001 -1.097372e+002
560956601.30383 -2.000000e+002 4.500000e+001 -4.318218e+001 1.307613e+002 -4.303881e+001 1.303765e+002 -9.325956e-001 -1.389487e+002
571339130.95761 -2.000000e+002 4.500000e+001 -4.157315e+001 1.011754e+002 -4.137691e+001 1.024515e+002 -1.016330e+000 -1.676286e+002
581721660.61138 -2.000000e+002 4.500000e+001 -3.960555e+001 7.229256e+001 -3.972982e+001 7.356528e+001 -9.992029e-001 1.633879e+002
592104190.26516 -2.000000e+002 4.500000e+001 -3.735234e+001 4.150512e+001 -3.752843e+001 4.413578e+001 -9.158965e-001 1.330182e+002
602486719.91893 -2.000000e+002 4.500000e+001 -3.503344e+001 8.804463e+000 -3.514497e+001 1.243563e+001 -8.311810e-001 1.006264e+002
612869249.57271 -2.000000e+002 4.500000e+001 -3.290255e+001 -2.541348e+001 -3.278121e+001 -2.236745e+001 -8.370038e-001 6.628362e+001
623251779.22648 -2.000000e+002 4.500000e+001 -3.096112e+001 -6.076409e+001 -3.078592e+001 -5.880587e+001 -9.648605e-001 3.070216e+001
633634308.88025 -2.000000e+002 4.500000e+001 -2.906579e+001 -9.548033e+001 -2.913549e+001 -9.472922e+001 -1.163915e+000 -5.085892e+000
644016838.53403 -2.000000e+002 4.500000e+001 -2.726612e+001 -1.302400e+002 -2.755616e+001 -1.285224e+002 -1.306744e+000 -4.050359e+001
654399368.1878 -2.000000e+002 4.500000e+001 -2.540598e+001 -1.645637e+002 -2.569706e+001 -1.609107e+002 -1.335591e+000 -7.552628e+001
664781897.84158 -2.000000e+002 4.500000e+001 -2.337653e+001 1.612411e+002 -2.342048e+001 1.659914e+002 -1.266525e+000 -1.108412e+002
675164427.49535 -2.000000e+002 4.500000e+001 -2.110314e+001 1.262868e+002 -2.090263e+001 1.303399e+002 -1.194164e+000 -1.470781e+002
685546957.14913 -2.000000e+002 4.500000e+001 -1.866051e+001 8.900412e+001 -1.846118e+001 9.116523e+001 -1.240336e+000 1.750271e+002
695929486.8029 -2.000000e+002 4.500000e+001 -1.633047e+001 4.887902e+001 -1.636032e+001 5.023414e+001 -1.485672e+000 1.351184e+002
706312016.45668 -2.000000e+002 4.500000e+001 -1.427117e+001 6.971994e+000 -1.450144e+001 9.640530e+000 -1.893264e+000 9.282455e+001
716694546.11045 -2.000000e+002 4.500000e+001 -1.244641e+001 -3.505688e+001 -1.256269e+001 -3.080348e+001 -2.308987e+000 4.749554e+001
727077075.76423 -2.000000e+002 4.500000e+001 -1.062685e+001 -7.708757e+001 -1.049440e+001 -7.288097e+001 -2.650732e+000 -8.921940e-001
737459605.418 -2.000000e+002 4.500000e+001 -8.772711e+000 -1.213838e+002 -8.574052e+000 -1.187078e+002 -2.927900e+000 -5.175137e+001
747842135.07178 -2.000000e+002 4.500000e+001 -7.306869e+000 -1.690816e+002 -7.298484e+000 -1.671715e+002 -3.267441e+000 -1.022531e+002
758224664.72555 -2.000000e+002 4.500000e+001 -6.644533e+000 1.430782e+002 -6.769437e+000 1.459303e+002 -3.707218e+000 -1.498046e+002
768607194.37933 -2.000000e+002 4.500000e+001 -6.467184e+000 9.906663e+001 -6.493160e+000 1.029405e+002 -4.062942e+000 1.654464e+002
778989724.0331 -2.000000e+002 4.500000e+001 -6.162959e+000 5.864130e+001 -6.023273e+000 6.232678e+001 -4.342397e+000 1.214201e+002
789372253.68687 -2.000000e+002 4.500000e+001 -5.415028e+000 1.861798e+001 -5.263620e+000 2.133837e+001 -4.579344e+000 7.673883e+001
799754783.34065 -2.000000e+002 4.500000e+001 -4.529538e+000 -2.404783e+001 -4.533308e+000 -2.160715e+001 -4.914650e+000 3.128228e+001
810137312.99442 -2.000000e+002 4.500000e+001 -4.012876e+000 -6.866534e+001 -4.105798e+000 -6.552618e+001 -5.363728e+000 -1.322309e+001
820519842.6482 -2.000000e+002 4.500000e+001 -3.970424e+000 -1.123711e+002 -4.012555e+000 -1.084110e+002 -5.898323e+000 -5.525744e+001
830902372.30197 -2.000000e+002 4.500000e+001 -4.088665e+000 -1.535802e+002 -3.991795e+000 -1.494837e+002 -6.470376e+000 -9.487643e+001
841284901.95575 -2.000000e+002 4.500000e+001 -3.962804e+000 1.670808e+002 -3.813748e+000 1.704358e+002 -7.216904e+000 -1.336530e+002
851667431.60952 -2.000000e+002 4.500000e+001 -3.524102e+000 1.270431e+002 -3.455889e+000 1.298071e+002 -8.547338e+000 -1.746245e+002
862049961.2633 -2.000000e+002 4.500000e+001 -3.076095e+000 8.432418e+001 -3.082258e+000 8.730448e+001 -1.141782e+001 1.367530e+002
872432490.91707 -2.000000e+002 4.500000e+001 -2.979457e+000 3.985072e+001 -2.996694e+000 4.296818e+001 -1.736945e+001 5.799309e+001
882815020.57085 -2.000000e+002 4.500000e+001 -3.265392e+000 -4.594287e+000 -3.339347e+000 -1.475525e+000 -1.460787e+001 -6.484528e+001
893197550.22462 -2.000000e+002 4.500000e+001 -3.889478e+000 -4.849159e+001 -4.015010e+000 -4.459252e+001 -9.074680e+000 -1.276346e+002
903580079.8784 -2.000000e+002 4.500000e+001 -4.854895e+000 -9.095600e+001 -4.839191e+000 -8.623458e+001 -6.266691e+000 -1.739563e+002
913962609.53217 -2.000000e+002 4.500000e+001 -5.985932e+000 -1.307415e+002 -5.784593e+000 -1.266459e+002 -4.805630e+000 1.448830e+002
924345139.18594 -2.000000e+002 4.500000e+001 -6.992335e+000 -1.684579e+002 -6.824753e+000 -1.659618e+002 -3.952044e+000 1.057139e+002
934727668.83972 -2.000000e+002 4.500000e+001 -7.830133e+000 1.542112e+002 -7.934648e+000 1.561266e+002 -3.367001e+000 6.697368e+001
945110198.49349 -2.000000e+002 4.500000e+001 -8.695802e+000 1.161349e+002 -9.044894e+000 1.193421e+002 -2.913866e+000 2.795103e+001
955492728.14727 -2.000000e+002 4.500000e+001 -9.866849e+000 7.819372e+001 -1.014768e+001 8.345934e+001 -2.577107e+000 -1.081085e+001
965875257.80104 -2.000000e+002 4.500000e+001 -1.128445e+001 4.245435e+001 -1.127233e+001 4.838282e+001 -2.338971e+000 -4.802652e+001
976257787.45482 -2.000000e+002 4.500000e+001 -1.267223e+001 9.606420e+000 -1.246377e+001 1.434872e+001 -2.173404e+000 -8.283553e+001
986640317.10859 -2.000000e+002 4.500000e+001 -1.381006e+001 -2.128928e+001 -1.368161e+001 -1.821588e+001 -2.000616e+000 -1.151560e+002
997022846.76237 -2.000000e+002 4.500000e+001 -1.466900e+001 -5.149243e+001 -1.480574e+001 -4.894151e+001 -1.785851e+000 -1.455802e+002
1007405376.4161 -2.000000e+002 4.500000e+001 -1.535679e+001 -8.210072e+001 -1.567607e+001 -7.820670e+001 -1.535113e+000 -1.751163e+002
1017787906.0699 -2.000000e+002 4.500000e+001 -1.595330e+001 -1.130099e+002 -1.621852e+001 -1.072303e+002 -1.311450e+000 1.553638e+002
1028170435.7237 -2.000000e+002 4.500000e+001 -1.650140e+001 -1.441190e+002 -1.648050e+001 -1.374489e+002 -1.169088e+000 1.252484e+002
1038552965.3775 -2.000000e+002 4.500000e+001 -1.700877e+001 -1.753824e+002 -1.673031e+001 -1.697188e+002 -1.157424e+000 9.424478e+001
1048935495.0312 -2.000000e+002 4.500000e+001 -1.748842e+001 1.528165e+002 -1.720728e+001 1.566947e+002 -1.268660e+000 6.241846e+001
1059318024.685 -2.000000e+002 4.500000e+001 -1.804132e+001 1.206179e+002 -1.798237e+001 1.235639e+002 -1.456445e+000 3.015715e+001
1069700554.3388 -2.000000e+002 4.500000e+001 -1.871920e+001 8.877917e+001 -1.887045e+001 9.243935e+001 -1.595163e+000 -2.184116e+000
1080083083.9926 -2.000000e+002 4.500000e+001 -1.945065e+001 5.801155e+001 -1.959806e+001 6.317666e+001 -1.610351e+000 -3.418475e+001
1090465613.6463 -2.000000e+002 4.500000e+001 -2.011555e+001 2.859982e+001 -2.006782e+001 3.444583e+001 -1.491973e+000 -6.568224e+001
1100848143.3001 -2.000000e+002 4.500000e+001 -2.070167e+001 -4.159636e-001 -2.044233e+001 4.607449e+000 -1.392934e+000 -9.660091e+001
1111230672.9539 -2.000000e+002 4.500000e+001 -2.105267e+001 -3.024135e+001 -2.077318e+001 -2.676176e+001 -1.211317e+000 -1.268660e+002
1121613202.6077 -2.000000e+002 4.500000e+001 -2.142236e+001 -6.102663e+001 -2.132490e+001 -5.870650e+001 -1.080855e+000 -1.562199e+002
1131995732.2614 -2.000000e+002 4.500000e+001 -2.200379e+001 -9.163632e+001 -2.212665e+001 -8.880049e+001 -1.097831e+000 1.755285e+002
1142378261.9152 -2.000000e+002 4.500000e+001 -2.270350e+001 -1.207005e+002 -2.290648e+001 -1.167238e+002 -1.179402e+000 1.482719e+002
1152760791.569 -2.000000e+002 4.500000e+001 -2.324167e+001 -1.480326e+002 -2.336030e+001 -1.430720e+002 -1.254964e+000 1.214939e+002
1163143321.2228 -2.000000e+002 4.500000e+001 -2.342809e+001 -1.747885e+002 -2.338553e+001 -1.694979e+002 -1.264600e+000 9.427755e+001
1173525850.8765 -2.000000e+002 4.500000e+001 -2.325928e+001 1.573014e+002 -2.314152e+001 1.613142e+002 -1.229442e+000 6.567646e+001
1183908380.5303 -2.000000e+002 4.500000e+001 -2.302332e+001 1.262370e+002 -2.301876e+001 1.293497e+002 -1.211662e+000 3.518187e+001
1194290910.1841 -2.000000e+002 4.500000e+001 -2.309915e+001 9.269842e+001 -2.329616e+001 9.592881e+001 -1.302507e+000 3.221600e+000
1204673439.8379 -2.000000e+002 4.500000e+001 -2.370820e+001 5.946270e+001 -2.400648e+001 6.409986e+001 -1.499122e+000 -2.890663e+001
1215055969.4916 -2.000000e+002 4.500000e+001 -2.461739e+001 2.907016e+001 -2.482544e+001 3.475109e+001 -1.696380e+000 -5.987545e+001
1225438499.1454 -2.000000e+002 4.500000e+001 -2.535464e+001 1.649143e+000 -2.543123e+001 7.509734e+000 -1.765553e+000 -8.909744e+001
1235821028.7992 -2.000000e+002 4.500000e+001 -2.572822e+001 -2.422180e+001 -2.570782e+001 -1.895976e+001 -1.631789e+000 -1.169584e+002
1246203558.453 -2.000000e+002 4.500000e+001 -2.568672e+001 -5.118088e+001 -2.566538e+001 -4.662619e+001 -1.344322e+000 -1.442402e+002
1256586088.1067 -2.000000e+002 4.500000e+001 -2.550603e+001 -8.034914e+001 -2.561477e+001 -7.591045e+001 -1.022128e+000 -1.717445e+002
1266968617.7605 -2.000000e+002 4.500000e+001 -2.552741e+001 -1.116356e+002 -2.573473e+001 -1.064196e+002 -8.266564e-001 1.602137e+002
1277351147.4143 -2.000000e+002 4.500000e+001 -2.585965e+001 -1.430114e+002 -2.604955e+001 -1.366970e+002 -8.325286e-001 1.317702e+002
1287733677.0681 -2.000000e+002 4.500000e+001 -2.641214e+001 -1.726332e+002 -2.644405e+001 -1.659160e+002 -1.048087e+000 1.032710e+002
1298116206.7218 -2.000000e+002 4.500000e+001 -2.683224e+001 1.595050e+002 -2.675669e+001 1.655340e+002 -1.353840e+000 7.484464e+001
1308498736.3756 -2.000000e+002 4.500000e+001 -2.702453e+001 1.322854e+002 -2.692819e+001 1.375677e+002 -1.621677e+000 4.603666e+001
1318881266.0294 -2.000000e+002 4.500000e+001 -2.699135e+001 1.042063e+002 -2.700834e+001 1.089560e+002 -1.744447e+000 1.638321e+001
1329263795.6832 -2.000000e+002 4.500000e+001 -2.691761e+001 7.475030e+001 -2.700933e+001 7.976806e+001 -1.703327e+000 -1.433696e+001
1339646325.3369 -2.000000e+002 4.500000e+001 -2.696286e+001 4.430451e+001 -2.710644e+001 5.010441e+001 -1.541475e+000 -4.582771e+001
1350028854.9907 -2.000000e+002 4.500000e+001 -2.711150e+001 1.401293e+001 -2.717053e+001 2.017913e+001 -1.326616e+000 -7.734076e+001
1360411384.6445 -2.000000e+002 4.500000e+001 -2.732245e+001 -1.667665e+001 -2.730717e+001 -1.009170e+001 -1.146594e+000 -1.079718e+002
1370793914.2983 -2.000000e+002 4.500000e+001 -2.764466e+001 -4.693003e+001 -2.755468e+001 -4.071952e+001 -1.060496e+000 -1.372276e+002
1381176443.952 -2.000000e+002 4.500000e+001 -2.800039e+001 -7.702223e+001 -2.794492e+001 -7.138432e+001 -1.045406e+000 -1.650041e+002
1391558973.6058 -2.000000e+002 4.500000e+001 -2.849092e+001 -1.063883e+002 -2.853214e+001 -1.009204e+002 -1.086231e+000 1.683687e+002
1401941503.2596 -2.000000e+002 4.500000e+001 -2.903231e+001 -1.343925e+002 -2.909268e+001 -1.285534e+002 -1.189825e+000 1.424171e+002
1412324032.9134 -2.000000e+002 4.500000e+001 -2.943904e+001 -1.603496e+002 -2.948365e+001 -1.547042e+002 -1.307352e+000 1.163575e+002
1422706562.5671 -2.000000e+002 4.500000e+001 -2.944767e+001 1.738564e+002 -2.947489e+001 1.799126e+002 -1.408514e+000 8.956248e+001
1433089092.2209 -2.000000e+002 4.500000e+001 -2.921720e+001 1.472702e+002 -2.922753e+001 1.532445e+002 -1.521488e+000 6.129882e+001
1443471621.8747 -2.000000e+002 4.500000e+001 -2.876719e+001 1.183394e+002 -2.879627e+001 1.243270e+002 -1.595793e+000 3.107232e+001
1453854151.5285 -2.000000e+002 4.500000e+001 -2.842603e+001 8.684810e+001 -2.848184e+001 9.289146e+001 -1.600045e+000 -8.954663e-001
1464236681.1822 -2.000000e+002 4.500000e+001 -2.850687e+001 5.428917e+001 -2.852053e+001 6.042561e+001 -1.594214e+000 -3.372968e+001
1474619210.836 -2.000000e+002 4.500000e+001 -2.887988e+001 2.244459e+001 -2.889913e+001 2.822931e+001 -1.549655e+000 -6.606140e+001
1485001740.4898 -2.000000e+002 4.500000e+001 -2.933723e+001 -7.697330e+000 -2.945687e+001 -1.744877e+000 -1.457695e+000 -9.692954e+001
1495384270.1436 -2.000000e+002 4.500000e+001 -2.981463e+001 -3.643019e+001 -2.991313e+001 -3.033939e+001 -1.355765e+000 -1.259556e+002
1505766799.7973 -2.000000e+002 4.500000e+001 -3.008901e+001 -6.529772e+001 -3.019723e+001 -5.879378e+001 -1.247041e+000 -1.535271e+002
