!Agilent Technologies,E5071C,MY46106184,A.09.10
!Date: Mon Jan 01 01:10:03 2001
!Data & Calibration Information:
!Freq	S11:SOLT2(ON)	S21:SOLT2(ON)	S12:SOLT2(ON)	S22:SOLT2(ON)
# Hz S dB R 50
300000	-2.347118e+001	8.194413e+001	-1.030251e-001	-3.226220e+000	-1.183517e-001	-3.115066e+000	-2.323315e+001	8.109771e+001
2799813	-4.589015e+001	7.804863e+001	-7.376398e-004	-8.597686e-001	2.108774e-003	-8.329981e-001	-4.640201e+001	7.054257e+001
5299625	-5.691688e+001	3.697907e+001	8.228370e-003	-1.233717e+000	3.176126e-003	-1.174373e+000	-5.373295e+001	2.643964e+001
7799438	-5.849768e+001	-1.956927e+001	-4.565406e-003	-1.663634e+000	1.859214e-003	-1.690702e+000	-5.490858e+001	-3.186115e+001
10299250	-4.862556e+001	-8.649778e+001	-1.418460e-002	-2.384964e+000	-2.077634e-002	-2.444592e+000	-4.761921e+001	-7.128581e+001
12799063	-4.606077e+001	-8.765984e+001	-1.355038e-002	-2.915853e+000	-2.309223e-002	-2.981696e+000	-4.527173e+001	-7.501988e+001
15298875	-4.566953e+001	-8.318992e+001	-8.225926e-003	-3.310956e+000	-1.431499e-002	-3.376120e+000	-4.516798e+001	-7.500243e+001
17798688	-4.565765e+001	-8.397386e+001	-1.204992e-002	-3.664025e+000	-1.391475e-002	-3.714566e+000	-4.449402e+001	-7.540202e+001
20298500	-4.453076e+001	-8.963276e+001	-1.585148e-002	-4.035210e+000	-1.621449e-002	-4.053417e+000	-4.386083e+001	-7.497751e+001
22798313	-4.337664e+001	-8.983578e+001	-1.863887e-002	-4.482754e+000	-1.598311e-002	-4.505108e+000	-4.235308e+001	-8.074331e+001
25298125	-4.195018e+001	-9.145017e+001	-1.706771e-002	-4.983590e+000	-1.772306e-002	-4.996675e+000	-4.165462e+001	-8.127482e+001
27797938	-4.125376e+001	-9.240505e+001	-1.883414e-002	-5.472491e+000	-2.181527e-002	-5.494166e+000	-4.049702e+001	-8.262716e+001
30297750	-4.049915e+001	-9.263963e+001	-1.970579e-002	-5.973240e+000	-2.249393e-002	-5.984686e+000	-4.001275e+001	-8.398374e+001
32797563	-3.969556e+001	-9.390511e+001	-2.123616e-002	-6.469033e+000	-2.195456e-002	-6.483816e+000	-3.934032e+001	-8.563643e+001
35297375	-3.915761e+001	-9.828862e+001	-2.141485e-002	-6.956054e+000	-2.390857e-002	-6.975235e+000	-3.870509e+001	-8.618908e+001
37797188	-3.833502e+001	-9.917335e+001	-2.147292e-002	-7.434686e+000	-2.467883e-002	-7.453492e+000	-3.783765e+001	-8.692137e+001
40297000	-3.761299e+001	-1.014552e+002	-2.262863e-002	-7.915912e+000	-2.616151e-002	-7.955116e+000	-3.731382e+001	-8.832869e+001
42796813	-3.715123e+001	-1.018310e+002	-2.415787e-002	-8.413670e+000	-2.681224e-002	-8.425725e+000	-3.682745e+001	-9.023760e+001
45296625	-3.661535e+001	-1.027726e+002	-2.350130e-002	-8.921513e+000	-2.846124e-002	-8.921301e+000	-3.629642e+001	-9.165728e+001
47796438	-3.604586e+001	-1.026359e+002	-2.655773e-002	-9.424291e+000	-3.050340e-002	-9.402839e+000	-3.568553e+001	-9.179659e+001
50296250	-3.561606e+001	-1.036996e+002	-2.653295e-002	-9.914125e+000	-3.235691e-002	-9.887294e+000	-3.525226e+001	-9.340891e+001
52796063	-3.520125e+001	-1.047305e+002	-2.901551e-002	-1.040373e+001	-3.405452e-002	-1.038204e+001	-3.489522e+001	-9.386952e+001
55295875	-3.474089e+001	-1.054121e+002	-3.118018e-002	-1.086508e+001	-3.463566e-002	-1.085954e+001	-3.447297e+001	-9.469400e+001
57795688	-3.440529e+001	-1.056044e+002	-3.353590e-002	-1.135050e+001	-3.628469e-002	-1.135302e+001	-3.408382e+001	-9.540734e+001
60295500	-3.397920e+001	-1.071468e+002	-3.384464e-002	-1.182357e+001	-3.746526e-002	-1.184185e+001	-3.383108e+001	-9.579570e+001
62795313	-3.374541e+001	-1.068971e+002	-3.556708e-002	-1.232086e+001	-3.872189e-002	-1.232194e+001	-3.345007e+001	-9.659439e+001
65295125	-3.342361e+001	-1.078553e+002	-3.663541e-002	-1.279978e+001	-4.197996e-002	-1.280317e+001	-3.308380e+001	-9.663127e+001
67794938	-3.315473e+001	-1.079635e+002	-3.815148e-002	-1.328142e+001	-4.265908e-002	-1.330589e+001	-3.281243e+001	-9.795800e+001
70294750	-3.290261e+001	-1.084361e+002	-3.986042e-002	-1.376140e+001	-4.316193e-002	-1.377534e+001	-3.254523e+001	-9.881943e+001
72794563	-3.260662e+001	-1.088124e+002	-4.230676e-002	-1.424255e+001	-4.548515e-002	-1.426779e+001	-3.224348e+001	-9.927049e+001
75294375	-3.248039e+001	-1.089407e+002	-4.161706e-002	-1.472099e+001	-4.467254e-002	-1.476306e+001	-3.196213e+001	-1.003165e+002
77794188	-3.218769e+001	-1.090296e+002	-4.437193e-002	-1.519672e+001	-4.503306e-002	-1.523549e+001	-3.164472e+001	-1.008274e+002
80294000	-3.203467e+001	-1.092529e+002	-4.505420e-002	-1.569052e+001	-4.618235e-002	-1.573856e+001	-3.141172e+001	-1.015092e+002
82793813	-3.169843e+001	-1.097478e+002	-4.654944e-002	-1.616563e+001	-4.776070e-002	-1.622779e+001	-3.120351e+001	-1.028202e+002
85293625	-3.153104e+001	-1.101395e+002	-4.729457e-002	-1.665247e+001	-4.864418e-002	-1.671458e+001	-3.099166e+001	-1.034801e+002
87793438	-3.128738e+001	-1.098619e+002	-4.968670e-002	-1.715174e+001	-4.979426e-002	-1.719122e+001	-3.071250e+001	-1.043011e+002
90293250	-3.098634e+001	-1.104480e+002	-5.076475e-002	-1.761854e+001	-5.155008e-002	-1.767664e+001	-3.055390e+001	-1.045023e+002
92793063	-3.094228e+001	-1.110461e+002	-5.071876e-002	-1.811721e+001	-5.230195e-002	-1.817163e+001	-3.035120e+001	-1.047136e+002
95292875	-3.083660e+001	-1.110226e+002	-4.996907e-002	-1.861123e+001	-5.253226e-002	-1.865211e+001	-3.019751e+001	-1.048987e+002
97792688	-3.063396e+001	-1.118408e+002	-5.158728e-002	-1.910323e+001	-5.358430e-002	-1.911714e+001	-2.998173e+001	-1.055910e+002
100292500	-3.049757e+001	-1.119819e+002	-5.386931e-002	-1.958834e+001	-5.693390e-002	-1.959322e+001	-2.985268e+001	-1.062106e+002
102792313	-3.032483e+001	-1.128524e+002	-5.623240e-002	-2.006705e+001	-6.108025e-002	-2.006819e+001	-2.964304e+001	-1.062137e+002
105292125	-3.011244e+001	-1.135228e+002	-5.878896e-002	-2.054647e+001	-6.280034e-002	-2.056441e+001	-2.947681e+001	-1.065481e+002
107791938	-2.993031e+001	-1.145907e+002	-6.268326e-002	-2.102626e+001	-6.485884e-002	-2.103636e+001	-2.927119e+001	-1.070484e+002
110291750	-2.981167e+001	-1.152404e+002	-6.316604e-002	-2.151605e+001	-6.557532e-002	-2.150329e+001	-2.907002e+001	-1.076819e+002
112791563	-2.961304e+001	-1.160613e+002	-6.570356e-002	-2.200092e+001	-6.790209e-002	-2.199252e+001	-2.889476e+001	-1.073630e+002
115291375	-2.943206e+001	-1.166879e+002	-6.694991e-002	-2.247394e+001	-6.965298e-002	-2.247395e+001	-2.875108e+001	-1.077897e+002
117791188	-2.921210e+001	-1.176417e+002	-6.627694e-002	-2.296004e+001	-7.251953e-002	-2.295338e+001	-2.854822e+001	-1.080768e+002
120291000	-2.903171e+001	-1.183312e+002	-6.963296e-002	-2.344325e+001	-7.204710e-002	-2.344518e+001	-2.844053e+001	-1.085140e+002
122790813	-2.888602e+001	-1.189790e+002	-6.981284e-002	-2.393250e+001	-7.413598e-002	-2.391996e+001	-2.824315e+001	-1.088541e+002
125290625	-2.870364e+001	-1.198388e+002	-7.141747e-002	-2.440925e+001	-7.373375e-002	-2.439348e+001	-2.806925e+001	-1.091733e+002
127790438	-2.848318e+001	-1.210889e+002	-7.177100e-002	-2.488752e+001	-7.552572e-002	-2.487301e+001	-2.786167e+001	-1.096535e+002
130290250	-2.826457e+001	-1.214014e+002	-7.277003e-002	-2.536391e+001	-7.464510e-002	-2.535711e+001	-2.773433e+001	-1.102631e+002
132790063	-2.812574e+001	-1.221079e+002	-7.276535e-002	-2.584493e+001	-7.548656e-002	-2.583165e+001	-2.749519e+001	-1.103945e+002
135289875	-2.796697e+001	-1.227300e+002	-7.448448e-002	-2.633093e+001	-7.711449e-002	-2.631961e+001	-2.739932e+001	-1.107023e+002
137789688	-2.779203e+001	-1.238743e+002	-7.381788e-002	-2.680068e+001	-7.786300e-002	-2.678926e+001	-2.717731e+001	-1.113993e+002
140289500	-2.764096e+001	-1.240843e+002	-7.398015e-002	-2.728854e+001	-7.713272e-002	-2.728328e+001	-2.703225e+001	-1.118193e+002
142789313	-2.743042e+001	-1.248766e+002	-7.480790e-002	-2.776649e+001	-7.797163e-002	-2.775836e+001	-2.688702e+001	-1.124826e+002
145289125	-2.727363e+001	-1.253675e+002	-7.632903e-002	-2.825305e+001	-7.890609e-002	-2.823284e+001	-2.674017e+001	-1.129967e+002
147788938	-2.705841e+001	-1.259835e+002	-7.749392e-002	-2.873110e+001	-7.890754e-002	-2.871134e+001	-2.662115e+001	-1.136539e+002
150288750	-2.698136e+001	-1.265972e+002	-7.799695e-002	-2.921117e+001	-7.904767e-002	-2.919293e+001	-2.647640e+001	-1.139658e+002
152788563	-2.679502e+001	-1.271835e+002	-7.884714e-002	-2.969007e+001	-8.066286e-002	-2.967113e+001	-2.632067e+001	-1.143917e+002
155288375	-2.663582e+001	-1.275620e+002	-7.929591e-002	-3.017003e+001	-8.301294e-002	-3.015032e+001	-2.621118e+001	-1.151170e+002
157788188	-2.654438e+001	-1.281234e+002	-8.221463e-002	-3.065311e+001	-8.420098e-002	-3.063150e+001	-2.606706e+001	-1.158281e+002
160288000	-2.640126e+001	-1.285298e+002	-8.300527e-002	-3.113236e+001	-8.521256e-002	-3.111714e+001	-2.595919e+001	-1.161480e+002
162787813	-2.627066e+001	-1.289513e+002	-8.446716e-002	-3.160039e+001	-8.878553e-002	-3.158976e+001	-2.583922e+001	-1.169250e+002
165287625	-2.619749e+001	-1.292427e+002	-8.449243e-002	-3.207770e+001	-8.901123e-002	-3.207407e+001	-2.571755e+001	-1.175172e+002
167787438	-2.606194e+001	-1.299239e+002	-8.578814e-002	-3.256416e+001	-9.100247e-002	-3.255644e+001	-2.563033e+001	-1.178764e+002
170287250	-2.592130e+001	-1.301988e+002	-8.949592e-002	-3.303533e+001	-9.139929e-002	-3.304198e+001	-2.552318e+001	-1.183707e+002
172787063	-2.586792e+001	-1.306125e+002	-8.980458e-002	-3.352585e+001	-9.344993e-002	-3.351111e+001	-2.546833e+001	-1.189893e+002
175286875	-2.580020e+001	-1.309532e+002	-9.037890e-002	-3.400057e+001	-9.442199e-002	-3.399481e+001	-2.535956e+001	-1.195847e+002
177786688	-2.564414e+001	-1.314230e+002	-9.035864e-002	-3.447052e+001	-9.466618e-002	-3.447920e+001	-2.528718e+001	-1.203309e+002
180286500	-2.560140e+001	-1.319877e+002	-9.153026e-002	-3.495053e+001	-9.700131e-002	-3.494122e+001	-2.517011e+001	-1.204930e+002
182786313	-2.550103e+001	-1.324942e+002	-9.306990e-002	-3.542287e+001	-9.806272e-002	-3.543248e+001	-2.511593e+001	-1.208430e+002
185286125	-2.544158e+001	-1.329478e+002	-9.396870e-002	-3.591121e+001	-9.980831e-002	-3.590481e+001	-2.500670e+001	-1.214897e+002
187785938	-2.534280e+001	-1.333264e+002	-9.459499e-002	-3.638521e+001	-1.005017e-001	-3.641173e+001	-2.493141e+001	-1.214482e+002
190285750	-2.528200e+001	-1.337763e+002	-9.590158e-002	-3.686732e+001	-1.014634e-001	-3.686711e+001	-2.485506e+001	-1.221892e+002
192785563	-2.520696e+001	-1.342395e+002	-9.787455e-002	-3.733055e+001	-1.034259e-001	-3.735411e+001	-2.475867e+001	-1.224417e+002
195285375	-2.512017e+001	-1.350222e+002	-9.825109e-002	-3.781734e+001	-1.036914e-001	-3.783473e+001	-2.470806e+001	-1.230155e+002
197785188	-2.507129e+001	-1.354132e+002	-1.001622e-001	-3.829894e+001	-1.034967e-001	-3.831799e+001	-2.462626e+001	-1.230315e+002
200285000	-2.501980e+001	-1.361509e+002	-1.020892e-001	-3.876572e+001	-1.077517e-001	-3.878330e+001	-2.452162e+001	-1.233126e+002
202784813	-2.490090e+001	-1.366572e+002	-1.025405e-001	-3.925121e+001	-1.076815e-001	-3.925719e+001	-2.444751e+001	-1.236118e+002
205284625	-2.486692e+001	-1.372694e+002	-1.041050e-001	-3.973084e+001	-1.079520e-001	-3.974018e+001	-2.431353e+001	-1.242315e+002
207784438	-2.475256e+001	-1.379093e+002	-1.062472e-001	-4.019687e+001	-1.099456e-001	-4.022254e+001	-2.425751e+001	-1.242553e+002
210284250	-2.472215e+001	-1.387000e+002	-1.068687e-001	-4.067736e+001	-1.097962e-001	-4.069797e+001	-2.418459e+001	-1.245520e+002
212784063	-2.462265e+001	-1.394273e+002	-1.086797e-001	-4.114757e+001	-1.114558e-001	-4.116553e+001	-2.406014e+001	-1.250889e+002
215283875	-2.458313e+001	-1.401607e+002	-1.077884e-001	-4.164705e+001	-1.127214e-001	-4.165678e+001	-2.395641e+001	-1.252746e+002
217783688	-2.447731e+001	-1.407853e+002	-1.102481e-001	-4.211302e+001	-1.142723e-001	-4.213527e+001	-2.387517e+001	-1.257318e+002
220283500	-2.437984e+001	-1.416212e+002	-1.109234e-001	-4.259337e+001	-1.150949e-001	-4.261973e+001	-2.378750e+001	-1.260054e+002
222783313	-2.429717e+001	-1.420687e+002	-1.131118e-001	-4.306820e+001	-1.167515e-001	-4.308124e+001	-2.367946e+001	-1.263907e+002
225283125	-2.421181e+001	-1.430139e+002	-1.147189e-001	-4.353475e+001	-1.167593e-001	-4.356343e+001	-2.363186e+001	-1.267382e+002
227782938	-2.410141e+001	-1.438429e+002	-1.159491e-001	-4.401469e+001	-1.189218e-001	-4.403513e+001	-2.352028e+001	-1.271926e+002
230282750	-2.400700e+001	-1.444446e+002	-1.174163e-001	-4.448640e+001	-1.208315e-001	-4.451567e+001	-2.339735e+001	-1.277385e+002
232782563	-2.387644e+001	-1.451363e+002	-1.190685e-001	-4.496923e+001	-1.210216e-001	-4.498846e+001	-2.332001e+001	-1.280809e+002
235282375	-2.381989e+001	-1.456896e+002	-1.195209e-001	-4.544424e+001	-1.217971e-001	-4.547356e+001	-2.325381e+001	-1.284915e+002
237782188	-2.371228e+001	-1.464135e+002	-1.205489e-001	-4.592493e+001	-1.240194e-001	-4.594854e+001	-2.315944e+001	-1.289110e+002
240282000	-2.361888e+001	-1.472150e+002	-1.228287e-001	-4.640693e+001	-1.253371e-001	-4.641678e+001	-2.307265e+001	-1.293846e+002
242781813	-2.351542e+001	-1.478695e+002	-1.238731e-001	-4.687896e+001	-1.253066e-001	-4.690120e+001	-2.302414e+001	-1.299877e+002
245281625	-2.341032e+001	-1.485041e+002	-1.236149e-001	-4.735220e+001	-1.255829e-001	-4.737423e+001	-2.295858e+001	-1.303651e+002
247781438	-2.334476e+001	-1.490153e+002	-1.261511e-001	-4.783301e+001	-1.278127e-001	-4.785490e+001	-2.284948e+001	-1.306936e+002
250281250	-2.324542e+001	-1.497518e+002	-1.278672e-001	-4.831586e+001	-1.286484e-001	-4.834399e+001	-2.277823e+001	-1.312823e+002
252781063	-2.317446e+001	-1.503413e+002	-1.291531e-001	-4.879072e+001	-1.303049e-001	-4.881834e+001	-2.271915e+001	-1.316933e+002
255280875	-2.308239e+001	-1.509844e+002	-1.300018e-001	-4.926427e+001	-1.321167e-001	-4.929210e+001	-2.266926e+001	-1.321113e+002
257780688	-2.299148e+001	-1.514131e+002	-1.313164e-001	-4.974615e+001	-1.332641e-001	-4.976839e+001	-2.261941e+001	-1.325236e+002
260280500	-2.289124e+001	-1.518529e+002	-1.323888e-001	-5.021322e+001	-1.341946e-001	-5.024908e+001	-2.256438e+001	-1.330110e+002
262780313	-2.285664e+001	-1.524962e+002	-1.352972e-001	-5.070634e+001	-1.351367e-001	-5.071871e+001	-2.248978e+001	-1.334336e+002
265280125	-2.276507e+001	-1.528920e+002	-1.347576e-001	-5.117679e+001	-1.371281e-001	-5.120952e+001	-2.243608e+001	-1.338398e+002
267779938	-2.270360e+001	-1.535428e+002	-1.359386e-001	-5.165052e+001	-1.392195e-001	-5.168169e+001	-2.238480e+001	-1.340928e+002
270279750	-2.263824e+001	-1.539407e+002	-1.377941e-001	-5.212383e+001	-1.404296e-001	-5.215684e+001	-2.231749e+001	-1.344823e+002
272779563	-2.257916e+001	-1.544384e+002	-1.387659e-001	-5.260269e+001	-1.407687e-001	-5.262682e+001	-2.228693e+001	-1.350365e+002
275279375	-2.253311e+001	-1.551737e+002	-1.386588e-001	-5.307222e+001	-1.406032e-001	-5.309849e+001	-2.221146e+001	-1.352260e+002
277779188	-2.248096e+001	-1.554325e+002	-1.419748e-001	-5.355802e+001	-1.415229e-001	-5.357937e+001	-2.216676e+001	-1.358496e+002
280279000	-2.245317e+001	-1.559517e+002	-1.420887e-001	-5.403315e+001	-1.432605e-001	-5.407201e+001	-2.214127e+001	-1.361137e+002
282778813	-2.241385e+001	-1.565796e+002	-1.425432e-001	-5.451376e+001	-1.450921e-001	-5.455051e+001	-2.210940e+001	-1.364264e+002
285278625	-2.236438e+001	-1.569496e+002	-1.429378e-001	-5.499897e+001	-1.466396e-001	-5.501205e+001	-2.206056e+001	-1.369456e+002
287778438	-2.234195e+001	-1.576274e+002	-1.418028e-001	-5.546558e+001	-1.464948e-001	-5.549305e+001	-2.201243e+001	-1.372824e+002
290278250	-2.231769e+001	-1.580452e+002	-1.458081e-001	-5.594194e+001	-1.493622e-001	-5.598070e+001	-2.195769e+001	-1.373152e+002
292778063	-2.230280e+001	-1.586745e+002	-1.438727e-001	-5.641624e+001	-1.490337e-001	-5.645497e+001	-2.194460e+001	-1.378328e+002
295277875	-2.225461e+001	-1.592615e+002	-1.470666e-001	-5.688701e+001	-1.499143e-001	-5.691788e+001	-2.186791e+001	-1.383408e+002
297777688	-2.226409e+001	-1.598972e+002	-1.481731e-001	-5.736047e+001	-1.518256e-001	-5.739883e+001	-2.184910e+001	-1.386296e+002
300277500	-2.221911e+001	-1.605733e+002	-1.464340e-001	-5.785037e+001	-1.532977e-001	-5.787542e+001	-2.181149e+001	-1.389596e+002
302777313	-2.218131e+001	-1.612403e+002	-1.493601e-001	-5.832429e+001	-1.543739e-001	-5.834688e+001	-2.177729e+001	-1.392384e+002
305277125	-2.218329e+001	-1.619456e+002	-1.508529e-001	-5.879043e+001	-1.547604e-001	-5.882531e+001	-2.175581e+001	-1.394733e+002
307776938	-2.214489e+001	-1.625187e+002	-1.514174e-001	-5.926397e+001	-1.549170e-001	-5.930457e+001	-2.173027e+001	-1.400710e+002
310276750	-2.213255e+001	-1.633063e+002	-1.512765e-001	-5.974349e+001	-1.571822e-001	-5.977610e+001	-2.167276e+001	-1.401754e+002
312776563	-2.212983e+001	-1.638813e+002	-1.531238e-001	-6.021728e+001	-1.582470e-001	-6.024096e+001	-2.164741e+001	-1.404869e+002
315276375	-2.211250e+001	-1.648445e+002	-1.544308e-001	-6.069548e+001	-1.579244e-001	-6.072859e+001	-2.162312e+001	-1.409629e+002
317776188	-2.208648e+001	-1.655306e+002	-1.550154e-001	-6.117326e+001	-1.601165e-001	-6.119961e+001	-2.158410e+001	-1.411466e+002
320276000	-2.205104e+001	-1.662409e+002	-1.545935e-001	-6.163937e+001	-1.617882e-001	-6.167988e+001	-2.154099e+001	-1.415983e+002
322775813	-2.205025e+001	-1.671855e+002	-1.551504e-001	-6.211722e+001	-1.606299e-001	-6.214657e+001	-2.152850e+001	-1.418257e+002
325275625	-2.203257e+001	-1.677668e+002	-1.578777e-001	-6.260363e+001	-1.621685e-001	-6.263151e+001	-2.151771e+001	-1.421184e+002
327775438	-2.199282e+001	-1.683862e+002	-1.590832e-001	-6.307709e+001	-1.628161e-001	-6.309581e+001	-2.146435e+001	-1.426069e+002
330275250	-2.197211e+001	-1.694222e+002	-1.595048e-001	-6.354776e+001	-1.638968e-001	-6.358648e+001	-2.142236e+001	-1.428108e+002
332775063	-2.191854e+001	-1.701043e+002	-1.600759e-001	-6.403010e+001	-1.660742e-001	-6.404667e+001	-2.139148e+001	-1.430751e+002
335274875	-2.191050e+001	-1.708852e+002	-1.614837e-001	-6.450770e+001	-1.665758e-001	-6.452747e+001	-2.135504e+001	-1.434075e+002
337774688	-2.187691e+001	-1.716389e+002	-1.639938e-001	-6.498612e+001	-1.699917e-001	-6.501462e+001	-2.131097e+001	-1.436714e+002
340274500	-2.184016e+001	-1.724219e+002	-1.628023e-001	-6.545902e+001	-1.702709e-001	-6.548628e+001	-2.127017e+001	-1.441023e+002
342774313	-2.179189e+001	-1.729771e+002	-1.660676e-001	-6.594660e+001	-1.705108e-001	-6.595980e+001	-2.124388e+001	-1.444413e+002
345274125	-2.176105e+001	-1.736762e+002	-1.655940e-001	-6.641178e+001	-1.715536e-001	-6.643302e+001	-2.120843e+001	-1.448116e+002
347773938	-2.173402e+001	-1.742936e+002	-1.680797e-001	-6.689379e+001	-1.717523e-001	-6.690914e+001	-2.117615e+001	-1.450146e+002
350273750	-2.167813e+001	-1.749553e+002	-1.688094e-001	-6.735799e+001	-1.725758e-001	-6.738162e+001	-2.116266e+001	-1.453981e+002
352773563	-2.164232e+001	-1.755139e+002	-1.700978e-001	-6.784697e+001	-1.734363e-001	-6.785381e+001	-2.113463e+001	-1.459687e+002
355273375	-2.160591e+001	-1.761395e+002	-1.701040e-001	-6.831402e+001	-1.753233e-001	-6.834527e+001	-2.108673e+001	-1.462566e+002
357773188	-2.155250e+001	-1.767928e+002	-1.716817e-001	-6.878789e+001	-1.769440e-001	-6.881025e+001	-2.105826e+001	-1.469062e+002
360273000	-2.152312e+001	-1.772517e+002	-1.727057e-001	-6.926376e+001	-1.762770e-001	-6.928995e+001	-2.102179e+001	-1.471554e+002
362772813	-2.147621e+001	-1.778631e+002	-1.721929e-001	-6.974671e+001	-1.778923e-001	-6.975735e+001	-2.097960e+001	-1.477160e+002
365272625	-2.145310e+001	-1.783315e+002	-1.740243e-001	-7.022146e+001	-1.786222e-001	-7.024324e+001	-2.097979e+001	-1.481465e+002
367772438	-2.144825e+001	-1.789013e+002	-1.721825e-001	-7.069486e+001	-1.780441e-001	-7.070961e+001	-2.097329e+001	-1.486504e+002
370272250	-2.139657e+001	-1.792748e+002	-1.745579e-001	-7.116786e+001	-1.795087e-001	-7.119481e+001	-2.094692e+001	-1.491286e+002
372772063	-2.137630e+001	-1.798011e+002	-1.757377e-001	-7.165291e+001	-1.803377e-001	-7.166444e+001	-2.092383e+001	-1.496415e+002
375271875	-2.136511e+001	1.798192e+002	-1.779431e-001	-7.213956e+001	-1.830499e-001	-7.214265e+001	-2.092057e+001	-1.501525e+002
