! COPPER MOUNTAIN TECHNOLOGIES, TR5048, 14027131, 0.7.17/2.0
! Date: 1.11.2025 09:54:42
! Data: Format [Calibration Info]
! Freq          	S11: Re/Im F1                  
# HZ S RI R 50
2.60000000E+08	 6.75319623E-02	-8.11278471E-02
2.60200000E+08	 6.36755283E-02	-8.18677740E-02
2.60400000E+08	 5.98931203E-02	-8.26150259E-02
2.60600000E+08	 5.60658951E-02	-8.32432512E-02
2.60800000E+08	 5.23545387E-02	-8.38855822E-02
2.61000000E+08	 4.84816383E-02	-8.44281315E-02
2.61200000E+08	 4.47315371E-02	-8.49854338E-02
2.61400000E+08	 4.08854993E-02	-8.54401844E-02
2.61600000E+08	 3.71237399E-02	-8.59594452E-02
2.61800000E+08	 3.33403541E-02	-8.63105408E-02
2.62000000E+08	 2.94672527E-02	-8.66817770E-02
2.62200000E+08	 2.56826829E-02	-8.70138177E-02
2.62400000E+08	 2.19692018E-02	-8.72845151E-02
2.62600000E+08	 1.79948113E-02	-8.75540348E-02
2.62800000E+08	 1.42453509E-02	-8.78434791E-02
2.63000000E+08	 1.05279684E-02	-8.80317950E-02
2.63200000E+08	 6.71421839E-03	-8.81528415E-02
2.63400000E+08	 2.95283895E-03	-8.82142675E-02
2.63600000E+08	-9.16676497E-04	-8.83937976E-02
2.63800000E+08	-4.67215153E-03	-8.83405297E-02
2.64000000E+08	-8.51470400E-03	-8.83807186E-02
2.64200000E+08	-1.22203091E-02	-8.83534933E-02
2.64400000E+08	-1.59664068E-02	-8.82247421E-02
2.64600000E+08	-1.97341622E-02	-8.80867141E-02
2.64800000E+08	-2.35077767E-02	-8.79584858E-02
2.65000000E+08	-2.72476784E-02	-8.75654352E-02
2.65200000E+08	-3.09887605E-02	-8.73781252E-02
2.65400000E+08	-3.46990281E-02	-8.71685390E-02
2.65600000E+08	-3.84405268E-02	-8.67841875E-02
2.65800000E+08	-4.21199806E-02	-8.64430591E-02
2.66000000E+08	-4.59132271E-02	-8.60945681E-02
2.66200000E+08	-4.96020866E-02	-8.55762176E-02
2.66400000E+08	-5.32517366E-02	-8.50989940E-02
2.66600000E+08	-5.69987045E-02	-8.44922536E-02
2.66800000E+08	-6.06043633E-02	-8.39233147E-02
2.67000000E+08	-6.42124204E-02	-8.33425926E-02
2.67200000E+08	-6.80373360E-02	-8.27222783E-02
2.67400000E+08	-7.16138661E-02	-8.20939595E-02
2.67600000E+08	-7.53639672E-02	-8.12885124E-02
2.67800000E+08	-7.89391784E-02	-8.06109301E-02
2.68000000E+08	-8.25430508E-02	-7.97172745E-02
2.68200000E+08	-8.61201242E-02	-7.89175341E-02
2.68400000E+08	-8.98021229E-02	-7.80826589E-02
2.68600000E+08	-9.32904230E-02	-7.71464971E-02
2.68800000E+08	-9.67929893E-02	-7.62564306E-02
2.69000000E+08	-1.00373758E-01	-7.52865217E-02
2.69200000E+08	-1.03829392E-01	-7.41998719E-02
2.69400000E+08	-1.07308983E-01	-7.32604758E-02
2.69600000E+08	-1.10877367E-01	-7.21787428E-02
2.69800000E+08	-1.14313944E-01	-7.10836021E-02
2.70000000E+08	-1.17748390E-01	-6.99312474E-02
2.70200000E+08	-1.21196569E-01	-6.87850302E-02
2.70400000E+08	-1.24566904E-01	-6.75784107E-02
2.70600000E+08	-1.28049121E-01	-6.63523866E-02
2.70800000E+08	-1.31418683E-01	-6.50269020E-02
2.71000000E+08	-1.34773247E-01	-6.37919833E-02
2.71200000E+08	-1.38024511E-01	-6.23373858E-02
2.71400000E+08	-1.41368439E-01	-6.09579656E-02
2.71600000E+08	-1.44637143E-01	-5.95100643E-02
2.71800000E+08	-1.47917119E-01	-5.80994107E-02
2.72000000E+08	-1.51142136E-01	-5.66132905E-02
2.72200000E+08	-1.54345891E-01	-5.52067203E-02
2.72400000E+08	-1.57592883E-01	-5.36251866E-02
2.72600000E+08	-1.60688192E-01	-5.20279883E-02
2.72800000E+08	-1.63889588E-01	-5.03752030E-02
2.73000000E+08	-1.67036157E-01	-4.88207372E-02
2.73200000E+08	-1.70223110E-01	-4.71191887E-02
2.73400000E+08	-1.73278548E-01	-4.54628347E-02
2.73600000E+08	-1.76366060E-01	-4.37670383E-02
2.73800000E+08	-1.79418036E-01	-4.20800748E-02
2.74000000E+08	-1.82416796E-01	-4.02581669E-02
2.74200000E+08	-1.85433366E-01	-3.84639454E-02
2.74400000E+08	-1.88434274E-01	-3.66746014E-02
2.74600000E+08	-1.91377301E-01	-3.47653072E-02
2.74800000E+08	-1.94416447E-01	-3.30415841E-02
2.75000000E+08	-1.97367217E-01	-3.10594270E-02
2.75200000E+08	-2.00271447E-01	-2.91231504E-02
2.75400000E+08	-2.03094170E-01	-2.71641152E-02
2.75600000E+08	-2.05906414E-01	-2.51260758E-02
2.75800000E+08	-2.08755945E-01	-2.31780218E-02
2.76000000E+08	-2.11521319E-01	-2.10560490E-02
2.76200000E+08	-2.14356825E-01	-1.90428000E-02
2.76400000E+08	-2.17030107E-01	-1.69227468E-02
2.76600000E+08	-2.19721196E-01	-1.47964423E-02
2.76800000E+08	-2.22490686E-01	-1.26818398E-02
2.77000000E+08	-2.25130487E-01	-1.05357081E-02
2.77200000E+08	-2.27761478E-01	-8.43341556E-03
2.77400000E+08	-2.30372828E-01	-6.19994414E-03
2.77600000E+08	-2.32991752E-01	-3.93878554E-03
2.77800000E+08	-2.35529560E-01	-1.62641203E-03
2.78000000E+08	-2.38125982E-01	 6.34309133E-04
2.78200000E+08	-2.40589913E-01	 2.84553766E-03
2.78400000E+08	-2.43030979E-01	 5.33857875E-03
2.78600000E+08	-2.45479225E-01	 7.65882311E-03
2.78800000E+08	-2.47905535E-01	 1.00220596E-02
2.79000000E+08	-2.50317836E-01	 1.23903876E-02
2.79200000E+08	-2.52739990E-01	 1.48546957E-02
2.79400000E+08	-2.55021475E-01	 1.73060325E-02
2.79600000E+08	-2.57344024E-01	 1.97027124E-02
2.79800000E+08	-2.59612399E-01	 2.22426244E-02
2.80000000E+08	-2.61865796E-01	 2.47410675E-02
2.80200000E+08	-2.64223248E-01	 2.72737039E-02
2.80400000E+08	-2.66269572E-01	 2.97977659E-02
2.80600000E+08	-2.68425077E-01	 3.22941070E-02
2.80800000E+08	-2.70594942E-01	 3.49197340E-02
2.81000000E+08	-2.72760365E-01	 3.74028322E-02
2.81200000E+08	-2.74806832E-01	 4.01100389E-02
2.81400000E+08	-2.76853734E-01	 4.27660070E-02
2.81600000E+08	-2.78869696E-01	 4.53955644E-02
2.81800000E+08	-2.80985945E-01	 4.80255304E-02
2.82000000E+08	-2.82891146E-01	 5.06083771E-02
2.82200000E+08	-2.84854719E-01	 5.34779581E-02
2.82400000E+08	-2.86818954E-01	 5.60539517E-02
2.82600000E+08	-2.88579517E-01	 5.87771238E-02
2.82800000E+08	-2.90438763E-01	 6.14755353E-02
2.83000000E+08	-2.92260224E-01	 6.42767664E-02
2.83200000E+08	-2.94068341E-01	 6.69778007E-02
2.83400000E+08	-2.95748213E-01	 6.97908428E-02
2.83600000E+08	-2.97518036E-01	 7.25628251E-02
2.83800000E+08	-2.99172846E-01	 7.53161062E-02
2.84000000E+08	-3.00858568E-01	 7.83096354E-02
2.84200000E+08	-3.02325516E-01	 8.11707747E-02
2.84400000E+08	-3.04222870E-01	 8.39225916E-02
2.84600000E+08	-3.05635909E-01	 8.67469611E-02
2.84800000E+08	-3.07223638E-01	 8.96182421E-02
2.85000000E+08	-3.08727343E-01	 9.25756146E-02
2.85200000E+08	-3.10209244E-01	 9.53700016E-02
2.85400000E+08	-3.11831944E-01	 9.83009094E-02
2.85600000E+08	-3.13046772E-01	 1.01195194E-01
2.85800000E+08	-3.14692544E-01	 1.04129081E-01
2.86000000E+08	-3.16041982E-01	 1.07046541E-01
2.86200000E+08	-3.17335807E-01	 1.10064363E-01
2.86400000E+08	-3.18526701E-01	 1.13023939E-01
2.86600000E+08	-3.20012252E-01	 1.15893415E-01
2.86800000E+08	-3.21256112E-01	 1.18926173E-01
2.87000000E+08	-3.22368256E-01	 1.21922972E-01
2.87200000E+08	-3.23554417E-01	 1.24907645E-01
2.87400000E+08	-3.24596954E-01	 1.27752165E-01
2.87600000E+08	-3.26035379E-01	 1.30776874E-01
2.87800000E+08	-3.27132695E-01	 1.33810362E-01
2.88000000E+08	-3.28012987E-01	 1.36881232E-01
2.88200000E+08	-3.29094533E-01	 1.39911026E-01
2.88400000E+08	-3.29938696E-01	 1.42984979E-01
2.88600000E+08	-3.31060529E-01	 1.46081238E-01
2.88800000E+08	-3.32177742E-01	 1.48923974E-01
2.89000000E+08	-3.32895508E-01	 1.51979427E-01
2.89200000E+08	-3.33810384E-01	 1.55001694E-01
2.89400000E+08	-3.34734619E-01	 1.58083096E-01
2.89600000E+08	-3.35622820E-01	 1.61337598E-01
2.89800000E+08	-3.36414372E-01	 1.64356973E-01
2.90000000E+08	-3.37223329E-01	 1.67462954E-01
2.90200000E+08	-3.38024709E-01	 1.70521304E-01
2.90400000E+08	-3.38624052E-01	 1.73490216E-01
2.90600000E+08	-3.39359089E-01	 1.76554008E-01
2.90800000E+08	-3.39905847E-01	 1.79933061E-01
2.91000000E+08	-3.40517426E-01	 1.82774893E-01
2.91200000E+08	-3.41147863E-01	 1.86003226E-01
2.91400000E+08	-3.41703898E-01	 1.89161095E-01
2.91600000E+08	-3.42228839E-01	 1.92263238E-01
2.91800000E+08	-3.42677444E-01	 1.95273276E-01
2.92000000E+08	-3.43105661E-01	 1.98347664E-01
2.92200000E+08	-3.43623012E-01	 2.01402612E-01
2.92400000E+08	-3.43856505E-01	 2.04471300E-01
2.92600000E+08	-3.44152524E-01	 2.07675579E-01
2.92800000E+08	-3.44427746E-01	 2.10801077E-01
2.93000000E+08	-3.44834295E-01	 2.14020690E-01
2.93200000E+08	-3.45213099E-01	 2.17208796E-01
2.93400000E+08	-3.45509530E-01	 2.20274797E-01
2.93600000E+08	-3.45745483E-01	 2.23314119E-01
2.93800000E+08	-3.46063298E-01	 2.26640977E-01
2.94000000E+08	-3.46086917E-01	 2.29711971E-01
2.94200000E+08	-3.46199906E-01	 2.32833323E-01
2.94400000E+08	-3.46440230E-01	 2.36007401E-01
2.94600000E+08	-3.46533903E-01	 2.39209655E-01
2.94800000E+08	-3.46596716E-01	 2.42437254E-01
2.95000000E+08	-3.46580359E-01	 2.45402157E-01
2.95200000E+08	-3.46622558E-01	 2.48569796E-01
2.95400000E+08	-3.46691667E-01	 2.51699184E-01
2.95600000E+08	-3.46501573E-01	 2.55006667E-01
2.95800000E+08	-3.46673196E-01	 2.58014109E-01
2.96000000E+08	-3.46359249E-01	 2.61035063E-01
2.96200000E+08	-3.46153990E-01	 2.64260212E-01
2.96400000E+08	-3.46084740E-01	 2.67317280E-01
2.96600000E+08	-3.45898208E-01	 2.70358463E-01
2.96800000E+08	-3.45698035E-01	 2.73703581E-01
2.97000000E+08	-3.45373471E-01	 2.76597216E-01
2.97200000E+08	-3.45168495E-01	 2.79654462E-01
2.97400000E+08	-3.44722129E-01	 2.82729758E-01
2.97600000E+08	-3.44557383E-01	 2.85907713E-01
2.97800000E+08	-3.44190576E-01	 2.88951859E-01
2.98000000E+08	-3.43754901E-01	 2.92122974E-01
2.98200000E+08	-3.43041262E-01	 2.95089977E-01
2.98400000E+08	-3.42703044E-01	 2.98180274E-01
2.98600000E+08	-3.42419023E-01	 3.01480278E-01
2.98800000E+08	-3.42035303E-01	 3.04503171E-01
2.99000000E+08	-3.41412259E-01	 3.07635488E-01
2.99200000E+08	-3.40933142E-01	 3.10676629E-01
2.99400000E+08	-3.40177499E-01	 3.13560647E-01
2.99600000E+08	-3.39699675E-01	 3.16488203E-01
2.99800000E+08	-3.39018307E-01	 3.19724781E-01
3.00000000E+08	-3.38468837E-01	 3.22800594E-01
