! COPPER MOUNTAIN TECHNOLOGIES, TR5048, 14027131, 0.7.17/2.0
! Date: 1.11.2025 09:56:38
! Data: Format [Calibration Info]
! Freq          	S11: Re/Im F1                  
# HZ S RI R 50
2.60000000E+08	 2.96228162E-01	 2.41697018E-01
2.60200000E+08	 2.94688294E-01	 2.37992720E-01
2.60400000E+08	 2.93104774E-01	 2.34346720E-01
2.60600000E+08	 2.91685785E-01	 2.30858128E-01
2.60800000E+08	 2.90100281E-01	 2.27096645E-01
2.61000000E+08	 2.88715449E-01	 2.23630777E-01
2.61200000E+08	 2.86907604E-01	 2.20105284E-01
2.61400000E+08	 2.85061840E-01	 2.16424707E-01
2.61600000E+08	 2.83518789E-01	 2.12875406E-01
2.61800000E+08	 2.81776477E-01	 2.09371609E-01
2.62000000E+08	 2.79984044E-01	 2.05841558E-01
2.62200000E+08	 2.78009153E-01	 2.02300527E-01
2.62400000E+08	 2.76342437E-01	 1.98880293E-01
2.62600000E+08	 2.74409274E-01	 1.95457209E-01
2.62800000E+08	 2.72521081E-01	 1.91973994E-01
2.63000000E+08	 2.70475710E-01	 1.88567789E-01
2.63200000E+08	 2.68490435E-01	 1.85179828E-01
2.63400000E+08	 2.66457348E-01	 1.81811083E-01
2.63600000E+08	 2.64318121E-01	 1.78308153E-01
2.63800000E+08	 2.62192582E-01	 1.74925566E-01
2.64000000E+08	 2.60073913E-01	 1.71658751E-01
2.64200000E+08	 2.58016887E-01	 1.68258085E-01
2.64400000E+08	 2.55638924E-01	 1.64942468E-01
2.64600000E+08	 2.53462570E-01	 1.61728880E-01
2.64800000E+08	 2.51120443E-01	 1.58497224E-01
2.65000000E+08	 2.48846482E-01	 1.55268445E-01
2.65200000E+08	 2.46502807E-01	 1.52135642E-01
2.65400000E+08	 2.44154122E-01	 1.48798463E-01
2.65600000E+08	 2.41681893E-01	 1.45693902E-01
2.65800000E+08	 2.39175070E-01	 1.42541700E-01
2.66000000E+08	 2.36677177E-01	 1.39451858E-01
2.66200000E+08	 2.34213531E-01	 1.36469020E-01
2.66400000E+08	 2.31615825E-01	 1.33382624E-01
2.66600000E+08	 2.29039323E-01	 1.30444143E-01
2.66800000E+08	 2.26447696E-01	 1.27401566E-01
2.67000000E+08	 2.23774733E-01	 1.24388227E-01
2.67200000E+08	 2.21085384E-01	 1.21358987E-01
2.67400000E+08	 2.18365621E-01	 1.18520416E-01
2.67600000E+08	 2.15643662E-01	 1.15569401E-01
2.67800000E+08	 2.12840617E-01	 1.12785495E-01
2.68000000E+08	 2.09963876E-01	 1.10029723E-01
2.68200000E+08	 2.07165522E-01	 1.07173086E-01
2.68400000E+08	 2.04382221E-01	 1.04330885E-01
2.68600000E+08	 2.01478557E-01	 1.01576062E-01
2.68800000E+08	 1.98562628E-01	 9.88727100E-02
2.69000000E+08	 1.95571231E-01	 9.62126249E-02
2.69200000E+08	 1.92515234E-01	 9.34946641E-02
2.69400000E+08	 1.89627978E-01	 9.09481641E-02
2.69600000E+08	 1.86570501E-01	 8.82734078E-02
2.69800000E+08	 1.83432631E-01	 8.57836336E-02
2.70000000E+08	 1.80278460E-01	 8.32585795E-02
2.70200000E+08	 1.77235013E-01	 8.08514914E-02
2.70400000E+08	 1.74098303E-01	 7.83318024E-02
2.70600000E+08	 1.70924223E-01	 7.59293759E-02
2.70800000E+08	 1.67646465E-01	 7.35529139E-02
2.71000000E+08	 1.64540119E-01	 7.12472136E-02
2.71200000E+08	 1.61323949E-01	 6.89078283E-02
2.71400000E+08	 1.57997295E-01	 6.65843992E-02
2.71600000E+08	 1.54775644E-01	 6.42802543E-02
2.71800000E+08	 1.51461244E-01	 6.21184815E-02
2.72000000E+08	 1.48116300E-01	 5.99415559E-02
2.72200000E+08	 1.44779311E-01	 5.77704766E-02
2.72400000E+08	 1.41398849E-01	 5.57539512E-02
2.72600000E+08	 1.38027173E-01	 5.37085375E-02
2.72800000E+08	 1.34589225E-01	 5.17215458E-02
2.73000000E+08	 1.31150692E-01	 4.97292838E-02
2.73200000E+08	 1.27683356E-01	 4.77434600E-02
2.73400000E+08	 1.24232678E-01	 4.58685001E-02
2.73600000E+08	 1.20723927E-01	 4.40432120E-02
2.73800000E+08	 1.17198272E-01	 4.22938893E-02
2.74000000E+08	 1.13635879E-01	 4.05640486E-02
2.74200000E+08	 1.10145608E-01	 3.87908863E-02
2.74400000E+08	 1.06599061E-01	 3.71115666E-02
2.74600000E+08	 1.02987937E-01	 3.53682123E-02
2.74800000E+08	 9.93943511E-02	 3.38198655E-02
2.75000000E+08	 9.57743967E-02	 3.21319374E-02
2.75200000E+08	 9.21157217E-02	 3.05771428E-02
2.75400000E+08	 8.84759940E-02	 2.91029530E-02
2.75600000E+08	 8.47979942E-02	 2.75935020E-02
2.75800000E+08	 8.12108323E-02	 2.60912886E-02
2.76000000E+08	 7.74264860E-02	 2.46811483E-02
2.76200000E+08	 7.37737808E-02	 2.33237573E-02
2.76400000E+08	 7.01409596E-02	 2.21700303E-02
2.76600000E+08	 6.64074042E-02	 2.09224435E-02
2.76800000E+08	 6.27917104E-02	 1.96720290E-02
2.77000000E+08	 5.90231171E-02	 1.85267418E-02
2.77200000E+08	 5.52821506E-02	 1.73723417E-02
2.77400000E+08	 5.15397133E-02	 1.62873579E-02
2.77600000E+08	 4.77510844E-02	 1.52463557E-02
2.77800000E+08	 4.40393334E-02	 1.42540606E-02
2.78000000E+08	 4.02859178E-02	 1.32274169E-02
2.78200000E+08	 3.65017371E-02	 1.23425309E-02
2.78400000E+08	 3.26987376E-02	 1.14363666E-02
2.78600000E+08	 2.89293581E-02	 1.07039736E-02
2.78800000E+08	 2.51687244E-02	 9.90244129E-03
2.79000000E+08	 2.13961826E-02	 9.10147937E-03
2.79200000E+08	 1.75960816E-02	 8.39360588E-03
2.79400000E+08	 1.38880958E-02	 7.74022590E-03
2.79600000E+08	 1.00525435E-02	 7.08066148E-03
2.79800000E+08	 6.24203426E-03	 6.54726548E-03
2.80000000E+08	 2.45947442E-03	 5.91014784E-03
2.80200000E+08	-1.29847263E-03	 5.48760591E-03
2.80400000E+08	-5.14509714E-03	 4.98599000E-03
2.80600000E+08	-8.90136680E-03	 4.62484074E-03
2.80800000E+08	-1.27403272E-02	 4.22879432E-03
2.81000000E+08	-1.65047596E-02	 3.90310920E-03
2.81200000E+08	-2.03467852E-02	 3.67458348E-03
2.81400000E+08	-2.41217576E-02	 3.38553349E-03
2.81600000E+08	-2.79710696E-02	 3.18066934E-03
2.81800000E+08	-3.17974166E-02	 2.97910464E-03
2.82000000E+08	-3.55413185E-02	 2.93382741E-03
2.82200000E+08	-3.93787932E-02	 2.84499499E-03
2.82400000E+08	-4.30514200E-02	 2.81763787E-03
2.82600000E+08	-4.68699706E-02	 2.83716891E-03
2.82800000E+08	-5.05720062E-02	 2.86119622E-03
2.83000000E+08	-5.43082039E-02	 2.96279142E-03
2.83200000E+08	-5.80066333E-02	 3.02891453E-03
2.83400000E+08	-6.17448417E-02	 3.22479548E-03
2.83600000E+08	-6.54599447E-02	 3.38192010E-03
2.83800000E+08	-6.92776605E-02	 3.58696215E-03
2.84000000E+08	-7.30459476E-02	 4.02942626E-03
2.84200000E+08	-7.66755232E-02	 4.23091203E-03
2.84400000E+08	-8.03149581E-02	 4.68061986E-03
2.84600000E+08	-8.40620425E-02	 5.03440609E-03
2.84800000E+08	-8.78003296E-02	 5.46228625E-03
2.85000000E+08	-9.14156731E-02	 5.95530391E-03
2.85200000E+08	-9.50538274E-02	 6.48435421E-03
2.85400000E+08	-9.87059628E-02	 7.05427774E-03
2.85600000E+08	-1.02379697E-01	 7.71785123E-03
2.85800000E+08	-1.05904039E-01	 8.30823913E-03
2.86000000E+08	-1.09603015E-01	 9.09034041E-03
2.86200000E+08	-1.13213899E-01	 9.78339212E-03
2.86400000E+08	-1.16708034E-01	 1.05701581E-02
2.86600000E+08	-1.20284911E-01	 1.13166751E-02
2.86800000E+08	-1.23823795E-01	 1.22287425E-02
2.87000000E+08	-1.27350279E-01	 1.30581714E-02
2.87200000E+08	-1.30845640E-01	 1.38644172E-02
2.87400000E+08	-1.34329303E-01	 1.48721780E-02
2.87600000E+08	-1.37765971E-01	 1.58863550E-02
2.87800000E+08	-1.41232410E-01	 1.68326036E-02
2.88000000E+08	-1.44704054E-01	 1.79646802E-02
2.88200000E+08	-1.48194911E-01	 1.90994447E-02
2.88400000E+08	-1.51577673E-01	 2.01530894E-02
2.88600000E+08	-1.55029950E-01	 2.12590442E-02
2.88800000E+08	-1.58407973E-01	 2.24380866E-02
2.89000000E+08	-1.61690129E-01	 2.36617623E-02
2.89200000E+08	-1.65045448E-01	 2.48168143E-02
2.89400000E+08	-1.68407456E-01	 2.62027178E-02
2.89600000E+08	-1.71693181E-01	 2.74732485E-02
2.89800000E+08	-1.75046120E-01	 2.88901151E-02
2.90000000E+08	-1.78195826E-01	 3.02801148E-02
2.90200000E+08	-1.81555555E-01	 3.16104883E-02
2.90400000E+08	-1.84675239E-01	 3.29877187E-02
2.90600000E+08	-1.87899769E-01	 3.44563438E-02
2.90800000E+08	-1.91016125E-01	 3.59450349E-02
2.91000000E+08	-1.94099962E-01	 3.75824413E-02
2.91200000E+08	-1.97259450E-01	 3.90125799E-02
2.91400000E+08	-2.00544147E-01	 4.06898601E-02
2.91600000E+08	-2.03500463E-01	 4.22281257E-02
2.91800000E+08	-2.06594250E-01	 4.39270956E-02
2.92000000E+08	-2.09535263E-01	 4.56091553E-02
2.92200000E+08	-2.12458037E-01	 4.72054700E-02
2.92400000E+08	-2.15465562E-01	 4.89077050E-02
2.92600000E+08	-2.18420902E-01	 5.06356998E-02
2.92800000E+08	-2.21409421E-01	 5.25114351E-02
2.93000000E+08	-2.24293399E-01	 5.43588413E-02
2.93200000E+08	-2.27234691E-01	 5.61083835E-02
2.93400000E+08	-2.30071789E-01	 5.79916162E-02
2.93600000E+08	-2.32764294E-01	 6.01241661E-02
2.93800000E+08	-2.35603642E-01	 6.17983266E-02
2.94000000E+08	-2.38558949E-01	 6.37144985E-02
2.94200000E+08	-2.41115032E-01	 6.58368641E-02
2.94400000E+08	-2.44018746E-01	 6.77814329E-02
2.94600000E+08	-2.46785619E-01	 6.98930904E-02
2.94800000E+08	-2.49404606E-01	 7.18470561E-02
2.95000000E+08	-2.51926511E-01	 7.39562964E-02
2.95200000E+08	-2.54689310E-01	 7.60378269E-02
2.95400000E+08	-2.57242231E-01	 7.79584553E-02
2.95600000E+08	-2.59837483E-01	 8.02569043E-02
2.95800000E+08	-2.62473302E-01	 8.22381777E-02
2.96000000E+08	-2.64863245E-01	 8.45388910E-02
2.96200000E+08	-2.67392214E-01	 8.65968536E-02
2.96400000E+08	-2.69995268E-01	 8.86075458E-02
2.96600000E+08	-2.72304162E-01	 9.09444019E-02
2.96800000E+08	-2.74721951E-01	 9.32365414E-02
2.97000000E+08	-2.77146641E-01	 9.54326838E-02
2.97200000E+08	-2.79470240E-01	 9.78253811E-02
2.97400000E+08	-2.81955299E-01	 1.00117146E-01
2.97600000E+08	-2.84106137E-01	 1.02390450E-01
2.97800000E+08	-2.86421134E-01	 1.04491007E-01
2.98000000E+08	-2.88826990E-01	 1.07096165E-01
2.98200000E+08	-2.90953902E-01	 1.09423310E-01
2.98400000E+08	-2.93202707E-01	 1.11764434E-01
2.98600000E+08	-2.95402826E-01	 1.14179259E-01
2.98800000E+08	-2.97393310E-01	 1.16463200E-01
2.99000000E+08	-2.99486429E-01	 1.19002984E-01
2.99200000E+08	-3.01526843E-01	 1.21486583E-01
2.99400000E+08	-3.03734180E-01	 1.23889839E-01
2.99600000E+08	-3.05811459E-01	 1.26489147E-01
2.99800000E+08	-3.07597732E-01	 1.28719306E-01
3.00000000E+08	-3.09712525E-01	 1.31319572E-01
