!ATF-38143
!S-PARAMETERS at Vds=2V  Id=10mA.   LAST UPDATED 20-10-99

# ghz s ma r 50 

0.5	0.97	-29	7.423	158	0.041	72	0.53	-26
0.8	0.93	-47	7.081	145	0.063	61	0.51	-40
1.0	0.91	-58	6.834	136	0.075	55	0.48	-50
1.5	0.83	-85	6.086	117	0.100	40	0.42	-72
1.8	0.78	-100	5.634	107	0.110	33	0.39	-85
2.0	0.76	-109	5.350	100	0.116	28	0.37	-94
2.5	0.71	-131	4.665	86	0.126	18	0.33	-114
3.0	0.68	-150	4.083	73	0.131	9	0.31	-132
4.0	0.65	180	3.251	50	0.137	-5	0.28	-163
5.0	0.65	153	2.716	30	0.140	-18	0.28	172
6.0	0.66	129	2.330	11	0.142	-30	0.28	147
7.0	0.68	107	2.003	-9	0.142	-42	0.29	122
8.0	0.71	87	1.722	-27	0.137	-53	0.32	99
9.0	0.73	68	1.509	-43	0.134	-62	0.35	83
10.0	0.75	53	1.366	-60	0.137	-72	0.40	70
11.0	0.79	36	1.204	-78	0.135	-83	0.45	52
12.0	0.82	20	1.055	-94	0.131	-94	0.50	35
13.0	0.84	8	0.898	-110	0.121	-104	0.54	17
14.0	0.85	-4	0.773	-125	0.114	.112	0.59	2
15.0	0.87	-18	0.672	-140	0.110	-122	0.63	-8
16.0	0.88	-31	0.587	-153	0.106	-131	0.67	-19
17.0	0.88	-41	0.512	-167	0.103	.141	0.70	-32
18.0	0.89	-51	0.433	-179	0.094	-148	0.74	-41


!FREQ   Fopt    GAMMA OPT       RN/Zo
!GHZ     dB     MAG     ANG      -

0.5	0.18	0.66	13	0.17
0.9	0.19	0.64	22	0.16
1.0	0.20	0.63	26	0.15
1.5	0.23	0.60	43	0.14
1.8	0.25	0.57	60	0.12
2.0	0.28	0.56	67	0.12
2.5	0.32	0.54	81	0.10
3.0	0.39	0.52	98	0.08
4.0	0.52	0.44	129	0.06
5.0	0.65	0.44	166	0.04
5.99   0.74  0.449 179. 0.04
6.0	0.75	0.45	-165	0.04
7.0	0.84	0.48	-135	0.08
8.0	0.95	0.51	-106	0.16
9.0	1.10	0.55	-84	0.29
10.0	1.20	0.56	-65	0.46
